.

Unique Device ID (UID) IS 20393239-56564308-0012001F
reg 0x00: 0x000D  CM4       0.13 V
reg 0x01: 0x0009  Lidar1    0.09 V
reg 0x02: 0x0009  Lidar2    0.09 V
reg 0x03: 0x000A  CanBus    0.10 V
reg 0x04: 0x000E  Accessory 0.14 V
reg 0x05: 0x0008  Input5v   0.08 V
reg 0x06: 0x1321  Batt      8.01 V
reg 0x07: 0x0427  MainPwr   10.63 V
reg 0x08: 0xF6CB  Temp      -23.57 C
reg 0x09: 0x0000  VRefInt   (do not use)
reg 0x0A: 0x01
reg 0x0B: 0x01
reg 0x0C: 0x01
reg 0x0D: 0x01
reg 0x0E: 0x00
reg 0x0F: 0x01
reg 0x10: 0x02
reg 0x11: 0x01

.

Unique Device ID (UID) IS 20393239-56564308-0012001F
reg 0x00: 0x000D  CM4       0.13 V
reg 0x01: 0x0009  Lidar1    0.09 V
reg 0x02: 0x0009  Lidar2    0.09 V
reg 0x03: 0x000A  CanBus    0.10 V
reg 0x04: 0x000E  Accessory 0.14 V
reg 0x05: 0x0008  Input5v   0.08 V
reg 0x06: 0x131F  Batt      7.99 V
reg 0x07: 0x0427  MainPwr   10.63 V
reg 0x08: 0xF6B8  Temp      -23.76 C
reg 0x09: 0x0000  VRefInt   (do not use)
reg 0x0A: 0x01
reg 0x0B: 0x01
reg 0x0C: 0x01
reg 0x0D: 0x01
reg 0x0E: 0x00
reg 0x0F: 0x01
reg 0x10: 0x02
reg 0x11: 0x01

.

Unique Device ID (UID) IS 20393239-56564308-0012001F
reg 0x00: 0x000D  CM4       0.13 V
reg 0x01: 0x0009  Lidar1    0.09 V
reg 0x02: 0x0009  Lidar2    0.09 V
reg 0x03: 0x000A  CanBus    0.10 V
reg 0x04: 0x000E  Accessory 0.14 V
reg 0x05: 0x0008  Input5v   0.08 V
reg 0x06: 0x131F  Batt      7.99 V
reg 0x07: 0x0427  MainPwr   10.63 V
reg 0x08: 0xF6DD  Temp      -23.39 C
reg 0x09: 0x0000  VRefInt   (do not use)
reg 0x0A: 0x01
reg 0x0B: 0x01
reg 0x0C: 0x01
reg 0x0D: 0x01
reg 0x0E: 0x00
reg 0x0F: 0x01
reg 0x10: 0x02
reg 0x11: 0x01

.

Unique Device ID (UID) IS 20393239-56564308-0012001F
reg 0x00: 0x000D  CM4       0.13 V
reg 0x01: 0x0009  Lidar1    0.09 V
reg 0x02: 0x0009  Lidar2    0.09 V
reg 0x03: 0x000A  CanBus    0.10 V
reg 0x04: 0x000E  Accessory 0.14 V
reg 0x05: 0x0008  Input5v   0.08 V
reg 0x06: 0x131F  Batt      7.99 V
reg 0x07: 0x0424  MainPwr   10.60 V
reg 0x08: 0xF739  Temp      -22.47 C
reg 0x09: 0x0000  VRefInt   (do not use)
reg 0x0A: 0x01
reg 0x0B: 0x01
reg 0x0C: 0x01
reg 0x0D: 0x01
reg 0x0E: 0x00
reg 0x0F: 0x01
reg 0x10: 0x02
reg 0x11: 0x01

.

Unique Device ID (UID) IS 20393239-56564308-0012001F
reg 0x00: 0x000D  CM4       0.13 V
reg 0x01: 0x0009  Lidar1    0.09 V
reg 0x02: 0x0009  Lidar2    0.09 V
reg 0x03: 0x000A  CanBus    0.10 V
reg 0x04: 0x000E  Accessory 0.14 V
reg 0x05: 0x0008  Input5v   0.08 V
reg 0x06: 0x131B  Batt      7.95 V
reg 0x07: 0x0427  MainPwr   10.63 V
reg 0x08: 0xF6CB  Temp      -23.57 C
reg 0x09: 0x0000  VRefInt   (do not use)
reg 0x0A: 0x01
reg 0x0B: 0x01
reg 0x0C: 0x01
reg 0x0D: 0x01
reg 0x0E: 0x00
reg 0x0F: 0x01
reg 0x10: 0x02
reg 0x11: 0x01

.

Unique Device ID (UID) IS 20393239-56564308-0012001F
reg 0x00: 0x000D  CM4       0.13 V
reg 0x01: 0x0009  Lidar1    0.09 V
reg 0x02: 0x0009  Lidar2    0.09 V
reg 0x03: 0x000A  CanBus    0.10 V
reg 0x04: 0x000E  Accessory 0.14 V
reg 0x05: 0x0008  Input5v   0.08 V
reg 0x06: 0x131F  Batt      7.99 V
reg 0x07: 0x0427  MainPwr   10.63 V
reg 0x08: 0xF727  Temp      -22.65 C
reg 0x09: 0x0000  VRefInt   (do not use)
reg 0x0A: 0x01
reg 0x0B: 0x01
reg 0x0C: 0x01
reg 0x0D: 0x01
reg 0x0E: 0x00
reg 0x0F: 0x01
reg 0x10: 0x02
reg 0x11: 0x01

.

Unique Device ID (UID) IS 20393239-56564308-0012001F
reg 0x00: 0x000D  CM4       0.13 V
reg 0x01: 0x0009  Lidar1    0.09 V
reg 0x02: 0x0009  Lidar2    0.09 V
reg 0x03: 0x000A  CanBus    0.10 V
reg 0x04: 0x000E  Accessory 0.14 V
reg 0x05: 0x0008  Input5v   0.08 V
reg 0x06: 0x1319  Batt      7.93 V
reg 0x07: 0x0427  MainPwr   10.63 V
reg 0x08: 0xF6B8  Temp      -23.76 C
reg 0x09: 0x0000  VRefInt   (do not use)
reg 0x0A: 0x01
reg 0x0B: 0x01
reg 0x0C: 0x01
reg 0x0D: 0x01
reg 0x0E: 0x00
reg 0x0F: 0x01
reg 0x10: 0x02
reg 0x11: 0x01

.

Unique Device ID (UID) IS 20393239-56564308-0012001F
reg 0x00: 0x000D  CM4       0.13 V
reg 0x01: 0x0009  Lidar1    0.09 V
reg 0x02: 0x0009  Lidar2    0.09 V
reg 0x03: 0x000A  CanBus    0.10 V
reg 0x04: 0x000E  Accessory 0.14 V
reg 0x05: 0x0008  Input5v   0.08 V
reg 0x06: 0x1308  Batt      7.76 V
reg 0x07: 0x0427  MainPwr   10.63 V
reg 0x08: 0xF702  Temp      -23.02 C
reg 0x09: 0x0000  VRefInt   (do not use)
reg 0x0A: 0x01
reg 0x0B: 0x01
reg 0x0C: 0x01
reg 0x0D: 0x01
reg 0x0E: 0x00
reg 0x0F: 0x01
reg 0x10: 0x02
reg 0x11: 0x01

.

Unique Device ID (UID) IS 20393239-56564308-0012001F
reg 0x00: 0x000D  CM4       0.13 V
reg 0x01: 0x0009  Lidar1    0.09 V
reg 0x02: 0x0009  Lidar2    0.09 V
reg 0x03: 0x000A  CanBus    0.10 V
reg 0x04: 0x000E  Accessory 0.14 V
reg 0x05: 0x0008  Input5v   0.08 V
reg 0x06: 0x131B  Batt      7.95 V
reg 0x07: 0x0426  MainPwr   10.62 V
reg 0x08: 0xF6EF  Temp      -23.21 C
reg 0x09: 0x0000  VRefInt   (do not use)
reg 0x0A: 0x01
reg 0x0B: 0x01
reg 0x0C: 0x01
reg 0x0D: 0x01
reg 0x0E: 0x00
reg 0x0F: 0x01
reg 0x10: 0x02
reg 0x11: 0x01

.

Unique Device ID (UID) IS 20393239-56564308-0012001F
reg 0x00: 0x000D  CM4       0.13 V
reg 0x01: 0x0009  Lidar1    0.09 V
reg 0x02: 0x0009  Lidar2    0.09 V
reg 0x03: 0x000A  CanBus    0.10 V
reg 0x04: 0x000E  Accessory 0.14 V
reg 0x05: 0x0008  Input5v   0.08 V
reg 0x06: 0x131D  Batt      7.97 V
reg 0x07: 0x0427  MainPwr   10.63 V
reg 0x08: 0xF6DD  Temp      -23.39 C
reg 0x09: 0x0000  VRefInt   (do not use)
reg 0x0A: 0x01
reg 0x0B: 0x01
reg 0x0C: 0x01
reg 0x0D: 0x01
reg 0x0E: 0x00
reg 0x0F: 0x01
reg 0x10: 0x02
reg 0x11: 0x01

.

Unique Device ID (UID) IS 20393239-56564308-0012001F
reg 0x00: 0x000D  CM4       0.13 V
reg 0x01: 0x0009  Lidar1    0.09 V
reg 0x02: 0x0009  Lidar2    0.09 V
reg 0x03: 0x000A  CanBus    0.10 V
reg 0x04: 0x000E  Accessory 0.14 V
reg 0x05: 0x0008  Input5v   0.08 V
reg 0x06: 0x1321  Batt      8.01 V
reg 0x07: 0x0427  MainPwr   10.63 V
reg 0x08: 0xF6CB  Temp      -23.57 C
reg 0x09: 0x0000  VRefInt   (do not use)
reg 0x0A: 0x01
reg 0x0B: 0x01
reg 0x0C: 0x01
reg 0x0D: 0x01
reg 0x0E: 0x00
reg 0x0F: 0x01
reg 0x10: 0x02
reg 0x11: 0x01

.

Unique Device ID (UID) IS 20393239-56564308-0012001F
reg 0x00: 0x000D  CM4       0.13 V
reg 0x01: 0x0009  Lidar1    0.09 V
reg 0x02: 0x0009  Lidar2    0.09 V
reg 0x03: 0x000A  CanBus    0.10 V
reg 0x04: 0x000E  Accessory 0.14 V
reg 0x05: 0x0008  Input5v   0.08 V
reg 0x06: 0x130A  Batt      7.78 V
reg 0x07: 0x0428  MainPwr   10.64 V
reg 0x08: 0xF6EF  Temp      -23.21 C
reg 0x09: 0x0000  VRefInt   (do not use)
reg 0x0A: 0x01
reg 0x0B: 0x01
reg 0x0C: 0x01
reg 0x0D: 0x01
reg 0x0E: 0x00
reg 0x0F: 0x01
reg 0x10: 0x02
reg 0x11: 0x01

.

Unique Device ID (UID) IS 20393239-56564308-0012001F
reg 0x00: 0x000D  CM4       0.13 V
reg 0x01: 0x0009  Lidar1    0.09 V
reg 0x02: 0x0009  Lidar2    0.09 V
reg 0x03: 0x000A  CanBus    0.10 V
reg 0x04: 0x000E  Accessory 0.14 V
reg 0x05: 0x0008  Input5v   0.08 V
reg 0x06: 0x131D  Batt      7.97 V
reg 0x07: 0x0426  MainPwr   10.62 V
reg 0x08: 0xF702  Temp      -23.02 C
reg 0x09: 0x0000  VRefInt   (do not use)
reg 0x0A: 0x01
reg 0x0B: 0x01
reg 0x0C: 0x01
reg 0x0D: 0x01
reg 0x0E: 0x00
reg 0x0F: 0x01
reg 0x10: 0x02
reg 0x11: 0x01

.

Unique Device ID (UID) IS 20393239-56564308-0012001F
reg 0x00: 0x000D  CM4       0.13 V
reg 0x01: 0x0009  Lidar1    0.09 V
reg 0x02: 0x0009  Lidar2    0.09 V
reg 0x03: 0x000A  CanBus    0.10 V
reg 0x04: 0x000E  Accessory 0.14 V
reg 0x05: 0x0008  Input5v   0.08 V
reg 0x06: 0x130E  Batt      7.82 V
reg 0x07: 0x0427  MainPwr   10.63 V
reg 0x08: 0xF6CB  Temp      -23.57 C
reg 0x09: 0x0000  VRefInt   (do not use)
reg 0x0A: 0x01
reg 0x0B: 0x01
reg 0x0C: 0x01
reg 0x0D: 0x01
reg 0x0E: 0x00
reg 0x0F: 0x01
reg 0x10: 0x02
reg 0x11: 0x01

.

Unique Device ID (UID) IS 20393239-56564308-0012001F
reg 0x00: 0x000D  CM4       0.13 V
reg 0x01: 0x0009  Lidar1    0.09 V
reg 0x02: 0x0009  Lidar2    0.09 V
reg 0x03: 0x000A  CanBus    0.10 V
reg 0x04: 0x000E  Accessory 0.14 V
reg 0x05: 0x0008  Input5v   0.08 V
reg 0x06: 0x131F  Batt      7.99 V
reg 0x07: 0x0427  MainPwr   10.63 V
reg 0x08: 0xF7DD  Temp      -20.83 C
reg 0x09: 0x0000  VRefInt   (do not use)
reg 0x0A: 0x01
reg 0x0B: 0x01
reg 0x0C: 0x01
reg 0x0D: 0x01
reg 0x0E: 0x00
reg 0x0F: 0x01
reg 0x10: 0x02
reg 0x11: 0x01

.

Unique Device ID (UID) IS 20393239-56564308-0012001F
reg 0x00: 0x000D  CM4       0.13 V
reg 0x01: 0x0009  Lidar1    0.09 V
reg 0x02: 0x0009  Lidar2    0.09 V
reg 0x03: 0x000A  CanBus    0.10 V
reg 0x04: 0x000E  Accessory 0.14 V
reg 0x05: 0x0008  Input5v   0.08 V
reg 0x06: 0x130A  Batt      7.78 V
reg 0x07: 0x0428  MainPwr   10.64 V
reg 0x08: 0xF6EF  Temp      -23.21 C
reg 0x09: 0x0000  VRefInt   (do not use)
reg 0x0A: 0x01
reg 0x0B: 0x01
reg 0x0C: 0x01
reg 0x0D: 0x01
reg 0x0E: 0x00
reg 0x0F: 0x01
reg 0x10: 0x02
reg 0x11: 0x01

.

Unique Device ID (UID) IS 20393239-56564308-0012001F
reg 0x00: 0x000D  CM4       0.13 V
reg 0x01: 0x0009  Lidar1    0.09 V
reg 0x02: 0x0009  Lidar2    0.09 V
reg 0x03: 0x000A  CanBus    0.10 V
reg 0x04: 0x000E  Accessory 0.14 V
reg 0x05: 0x0008  Input5v   0.08 V
reg 0x06: 0x1321  Batt      8.01 V
reg 0x07: 0x0422  MainPwr   10.58 V
reg 0x08: 0xF6DD  Temp      -23.39 C
reg 0x09: 0x0000  VRefInt   (do not use)
reg 0x0A: 0x01
reg 0x0B: 0x01
reg 0x0C: 0x01
reg 0x0D: 0x01
reg 0x0E: 0x00
reg 0x0F: 0x01
reg 0x10: 0x02
reg 0x11: 0x01

.

Unique Device ID (UID) IS 20393239-56564308-0012001F
reg 0x00: 0x000D  CM4       0.13 V
reg 0x01: 0x0009  Lidar1    0.09 V
reg 0x02: 0x0009  Lidar2    0.09 V
reg 0x03: 0x000A  CanBus    0.10 V
reg 0x04: 0x000E  Accessory 0.14 V
reg 0x05: 0x0008  Input5v   0.08 V
reg 0x06: 0x1318  Batt      7.92 V
reg 0x07: 0x0425  MainPwr   10.61 V
reg 0x08: 0xF637  Temp      -25.05 C
reg 0x09: 0x0000  VRefInt   (do not use)
reg 0x0A: 0x01
reg 0x0B: 0x01
reg 0x0C: 0x01
reg 0x0D: 0x01
reg 0x0E: 0x00
reg 0x0F: 0x01
reg 0x10: 0x02
reg 0x11: 0x01

.

Unique Device ID (UID) IS 20393239-56564308-0012001F
reg 0x00: 0x000D  CM4       0.13 V
reg 0x01: 0x0009  Lidar1    0.09 V
reg 0x02: 0x0009  Lidar2    0.09 V
reg 0x03: 0x000A  CanBus    0.10 V
reg 0x04: 0x000E  Accessory 0.14 V
reg 0x05: 0x0008  Input5v   0.08 V
reg 0x06: 0x130E  Batt      7.82 V
reg 0x07: 0x0429  MainPwr   10.65 V
reg 0x08: 0xF6DD  Temp      -23.39 C
reg 0x09: 0x0000  VRefInt   (do not use)
reg 0x0A: 0x01
reg 0x0B: 0x01
reg 0x0C: 0x01
reg 0x0D: 0x01
reg 0x0E: 0x00
reg 0x0F: 0x01
reg 0x10: 0x02
reg 0x11: 0x01

.

Unique Device ID (UID) IS 20393239-56564308-0012001F
reg 0x00: 0x000D  CM4       0.13 V
reg 0x01: 0x0009  Lidar1    0.09 V
reg 0x02: 0x0009  Lidar2    0.09 V
reg 0x03: 0x000A  CanBus    0.10 V
reg 0x04: 0x000E  Accessory 0.14 V
reg 0x05: 0x0008  Input5v   0.08 V
reg 0x06: 0x130C  Batt      7.80 V
reg 0x07: 0x0429  MainPwr   10.65 V
reg 0x08: 0xF6CB  Temp      -23.57 C
reg 0x09: 0x0000  VRefInt   (do not use)
reg 0x0A: 0x01
reg 0x0B: 0x01
reg 0x0C: 0x01
reg 0x0D: 0x01
reg 0x0E: 0x00
reg 0x0F: 0x01
reg 0x10: 0x02
reg 0x11: 0x01

.

Unique Device ID (UID) IS 20393239-56564308-0012001F
reg 0x00: 0x000D  CM4       0.13 V
reg 0x01: 0x0009  Lidar1    0.09 V
reg 0x02: 0x0009  Lidar2    0.09 V
reg 0x03: 0x000A  CanBus    0.10 V
reg 0x04: 0x000E  Accessory 0.14 V
reg 0x05: 0x0008  Input5v   0.08 V
reg 0x06: 0x130C  Batt      7.80 V
reg 0x07: 0x0427  MainPwr   10.63 V
reg 0x08: 0xF6EF  Temp      -23.21 C
reg 0x09: 0x0000  VRefInt   (do not use)
reg 0x0A: 0x01
reg 0x0B: 0x01
reg 0x0C: 0x01
reg 0x0D: 0x01
reg 0x0E: 0x00
reg 0x0F: 0x01
reg 0x10: 0x02
reg 0x11: 0x01

.

Unique Device ID (UID) IS 20393239-56564308-0012001F
reg 0x00: 0x000D  CM4       0.13 V
reg 0x01: 0x0009  Lidar1    0.09 V
reg 0x02: 0x0009  Lidar2    0.09 V
reg 0x03: 0x000A  CanBus    0.10 V
reg 0x04: 0x000E  Accessory 0.14 V
reg 0x05: 0x0008  Input5v   0.08 V
reg 0x06: 0x1319  Batt      7.93 V
reg 0x07: 0x0424  MainPwr   10.60 V
reg 0x08: 0xF6DD  Temp      -23.39 C
reg 0x09: 0x0000  VRefInt   (do not use)
reg 0x0A: 0x01
reg 0x0B: 0x01
reg 0x0C: 0x01
reg 0x0D: 0x01
reg 0x0E: 0x00
reg 0x0F: 0x01
reg 0x10: 0x02
reg 0x11: 0x01

.

Unique Device ID (UID) IS 20393239-56564308-0012001F
reg 0x00: 0x000D  CM4       0.13 V
reg 0x01: 0x0009  Lidar1    0.09 V
reg 0x02: 0x0009  Lidar2    0.09 V
reg 0x03: 0x000A  CanBus    0.10 V
reg 0x04: 0x000E  Accessory 0.14 V
reg 0x05: 0x0008  Input5v   0.08 V
reg 0x06: 0x1321  Batt      8.01 V
reg 0x07: 0x0427  MainPwr   10.63 V
reg 0x08: 0xF6EF  Temp      -23.21 C
reg 0x09: 0x0000  VRefInt   (do not use)
reg 0x0A: 0x01
reg 0x0B: 0x01
reg 0x0C: 0x01
reg 0x0D: 0x01
reg 0x0E: 0x00
reg 0x0F: 0x01
reg 0x10: 0x02
reg 0x11: 0x01

.

Unique Device ID (UID) IS 20393239-56564308-0012001F
reg 0x00: 0x000D  CM4       0.13 V
reg 0x01: 0x0009  Lidar1    0.09 V
reg 0x02: 0x0009  Lidar2    0.09 V
reg 0x03: 0x000A  CanBus    0.10 V
reg 0x04: 0x000E  Accessory 0.14 V
reg 0x05: 0x0008  Input5v   0.08 V
reg 0x06: 0x1319  Batt      7.93 V
reg 0x07: 0x0428  MainPwr   10.64 V
reg 0x08: 0xF6CB  Temp      -23.57 C
reg 0x09: 0x0000  VRefInt   (do not use)
reg 0x0A: 0x01
reg 0x0B: 0x01
reg 0x0C: 0x01
reg 0x0D: 0x01
reg 0x0E: 0x00
reg 0x0F: 0x01
reg 0x10: 0x02
reg 0x11: 0x01

.

Unique Device ID (UID) IS 20393239-56564308-0012001F
reg 0x00: 0x000D  CM4       0.13 V
reg 0x01: 0x0009  Lidar1    0.09 V
reg 0x02: 0x0009  Lidar2    0.09 V
reg 0x03: 0x000A  CanBus    0.10 V
reg 0x04: 0x000E  Accessory 0.14 V
reg 0x05: 0x0008  Input5v   0.08 V
reg 0x06: 0x130E  Batt      7.82 V
reg 0x07: 0x0428  MainPwr   10.64 V
reg 0x08: 0xF6DD  Temp      -23.39 C
reg 0x09: 0x0000  VRefInt   (do not use)
reg 0x0A: 0x01
reg 0x0B: 0x01
reg 0x0C: 0x01
reg 0x0D: 0x01
reg 0x0E: 0x00
reg 0x0F: 0x01
reg 0x10: 0x02
reg 0x11: 0x01
