.

Unique Device ID (UID) IS 20393239-56564308-0012001F
reg 0x00: 0x01D7  CM4       4.71 V
reg 0x01: 0x0012  Lidar1    0.18 V
reg 0x02: 0x000A  Lidar2    0.10 V
reg 0x03: 0x000B  CanBus    0.11 V
reg 0x04: 0x01FE  Accessory 5.10 V
reg 0x05: 0x01E8  Input5v   4.88 V
reg 0x06: 0x1473  Batt      11.39 V
reg 0x07: 0x041B  MainPwr   10.51 V
reg 0x08: 0xF62E  Temp      -25.14 C
reg 0x09: 0x0000  VRefInt   (do not use)
reg 0x0A: 0x01
reg 0x0B: 0x01
reg 0x0C: 0x01
reg 0x0D: 0x02
reg 0x0E: 0x00
reg 0x0F: 0x01
reg 0x10: 0x02
reg 0x11: 0x06

.

Unique Device ID (UID) IS 20393239-56564308-0012001F
reg 0x00: 0x01D6  CM4       4.70 V
reg 0x01: 0x0012  Lidar1    0.18 V
reg 0x02: 0x000A  Lidar2    0.10 V
reg 0x03: 0x000B  CanBus    0.11 V
reg 0x04: 0x01FF  Accessory 5.11 V
reg 0x05: 0x01E9  Input5v   4.89 V
reg 0x06: 0x1477  Batt      11.43 V
reg 0x07: 0x041C  MainPwr   10.52 V
reg 0x08: 0xF5D1  Temp      -26.07 C
reg 0x09: 0x0000  VRefInt   (do not use)
reg 0x0A: 0x01
reg 0x0B: 0x01
reg 0x0C: 0x01
reg 0x0D: 0x02
reg 0x0E: 0x00
reg 0x0F: 0x01
reg 0x10: 0x02
reg 0x11: 0x06

.

Unique Device ID (UID) IS 20393239-56564308-0012001F
reg 0x00: 0x01D5  CM4       4.69 V
reg 0x01: 0x0012  Lidar1    0.18 V
reg 0x02: 0x000A  Lidar2    0.10 V
reg 0x03: 0x000A  CanBus    0.10 V
reg 0x04: 0x0200  Accessory 5.12 V
reg 0x05: 0x01EA  Input5v   4.90 V
reg 0x06: 0x1475  Batt      11.41 V
reg 0x07: 0x041B  MainPwr   10.51 V
reg 0x08: 0xF5E4  Temp      -25.88 C
reg 0x09: 0x0000  VRefInt   (do not use)
reg 0x0A: 0x01
reg 0x0B: 0x01
reg 0x0C: 0x01
reg 0x0D: 0x02
reg 0x0E: 0x00
reg 0x0F: 0x01
reg 0x10: 0x02
reg 0x11: 0x06

.

Unique Device ID (UID) IS 20393239-56564308-0012001F
reg 0x00: 0x01D8  CM4       4.72 V
reg 0x01: 0x0012  Lidar1    0.18 V
reg 0x02: 0x000A  Lidar2    0.10 V
reg 0x03: 0x000B  CanBus    0.11 V
reg 0x04: 0x01FC  Accessory 5.08 V
reg 0x05: 0x01E7  Input5v   4.87 V
reg 0x06: 0x1480  Batt      11.52 V
reg 0x07: 0x041D  MainPwr   10.53 V
reg 0x08: 0xF5D1  Temp      -26.07 C
reg 0x09: 0x0000  VRefInt   (do not use)
reg 0x0A: 0x01
reg 0x0B: 0x01
reg 0x0C: 0x01
reg 0x0D: 0x02
reg 0x0E: 0x00
reg 0x0F: 0x01
reg 0x10: 0x02
reg 0x11: 0x06

.

Unique Device ID (UID) IS 20393239-56564308-0012001F
reg 0x00: 0x01D6  CM4       4.70 V
reg 0x01: 0x0012  Lidar1    0.18 V
reg 0x02: 0x000A  Lidar2    0.10 V
reg 0x03: 0x000B  CanBus    0.11 V
reg 0x04: 0x01FF  Accessory 5.11 V
reg 0x05: 0x01EA  Input5v   4.90 V
reg 0x06: 0x1471  Batt      11.37 V
reg 0x07: 0x041B  MainPwr   10.51 V
reg 0x08: 0xF609  Temp      -25.51 C
reg 0x09: 0x0000  VRefInt   (do not use)
reg 0x0A: 0x01
reg 0x0B: 0x01
reg 0x0C: 0x01
reg 0x0D: 0x02
reg 0x0E: 0x00
reg 0x0F: 0x01
reg 0x10: 0x02
reg 0x11: 0x06

.

Unique Device ID (UID) IS 20393239-56564308-0012001F
reg 0x00: 0x01D7  CM4       4.71 V
reg 0x01: 0x0012  Lidar1    0.18 V
reg 0x02: 0x000A  Lidar2    0.10 V
reg 0x03: 0x000B  CanBus    0.11 V
reg 0x04: 0x01FF  Accessory 5.11 V
reg 0x05: 0x01E9  Input5v   4.89 V
reg 0x06: 0x1473  Batt      11.39 V
reg 0x07: 0x041A  MainPwr   10.50 V
reg 0x08: 0xF61C  Temp      -25.32 C
reg 0x09: 0x0000  VRefInt   (do not use)
reg 0x0A: 0x01
reg 0x0B: 0x01
reg 0x0C: 0x01
reg 0x0D: 0x02
reg 0x0E: 0x00
reg 0x0F: 0x01
reg 0x10: 0x02
reg 0x11: 0x06

.

Unique Device ID (UID) IS 20393239-56564308-0012001F
reg 0x00: 0x01D8  CM4       4.72 V
reg 0x01: 0x0012  Lidar1    0.18 V
reg 0x02: 0x000A  Lidar2    0.10 V
reg 0x03: 0x000B  CanBus    0.11 V
reg 0x04: 0x01FF  Accessory 5.11 V
reg 0x05: 0x01EA  Input5v   4.90 V
reg 0x06: 0x1473  Batt      11.39 V
reg 0x07: 0x041B  MainPwr   10.51 V
reg 0x08: 0xF5E4  Temp      -25.88 C
reg 0x09: 0x0000  VRefInt   (do not use)
reg 0x0A: 0x01
reg 0x0B: 0x01
reg 0x0C: 0x01
reg 0x0D: 0x02
reg 0x0E: 0x00
reg 0x0F: 0x01
reg 0x10: 0x02
reg 0x11: 0x06