Unique Device ID (UID) IS 20393239-56564308-0012001F
reg 0x00: 0x01F1  CM4       4.97 V
reg 0x01: 0x0000  Lidar1    0.00 V
reg 0x02: 0x0000  Lidar2    0.00 V
reg 0x03: 0x0000  CanBus    0.00 V
reg 0x04: 0x0232  Accessory 5.62 V
reg 0x05: 0x0206  Input5v   5.18 V
reg 0x06: 0x15F8  Batt      15.28 V
reg 0x07: 0x044C  MainPwr   11.00 V
reg 0x08: 0x0B54  Temp      29.00 C
reg 0x09: 0x0148  VRefInt   (do not use)
reg 0x0A: 0x01
reg 0x0B: 0x01
reg 0x0C: 0x01
reg 0x0D: 0x02
reg 0x0E: 0x00
reg 0x0F: 0x01
reg 0x10: 0x02
reg 0x11: 0x01

.

Unique Device ID (UID) IS 20393239-56564308-0012001F
reg 0x00: 0x01EC  CM4       4.92 V
reg 0x01: 0x0000  Lidar1    0.00 V
reg 0x02: 0x0000  Lidar2    0.00 V
reg 0x03: 0x0000  CanBus    0.00 V
reg 0x04: 0x0232  Accessory 5.62 V
reg 0x05: 0x0207  Input5v   5.19 V
reg 0x06: 0x15EE  Batt      15.18 V
reg 0x07: 0x044A  MainPwr   10.98 V
reg 0x08: 0x0B54  Temp      29.00 C
reg 0x09: 0x0148  VRefInt   (do not use)
reg 0x0A: 0x01
reg 0x0B: 0x01
reg 0x0C: 0x01
reg 0x0D: 0x02
reg 0x0E: 0x00
reg 0x0F: 0x01
reg 0x10: 0x02
reg 0x11: 0x01

.

Unique Device ID (UID) IS 20393239-56564308-0012001F
reg 0x00: 0x01F0  CM4       4.96 V
reg 0x01: 0x0000  Lidar1    0.00 V
reg 0x02: 0x0000  Lidar2    0.00 V
reg 0x03: 0x0000  CanBus    0.00 V
reg 0x04: 0x0236  Accessory 5.66 V
reg 0x05: 0x0209  Input5v   5.21 V
reg 0x06: 0x15F6  Batt      15.26 V
reg 0x07: 0x044C  MainPwr   11.00 V
reg 0x08: 0x0B54  Temp      29.00 C
reg 0x09: 0x0148  VRefInt   (do not use)
reg 0x0A: 0x01
reg 0x0B: 0x01
reg 0x0C: 0x01
reg 0x0D: 0x02
reg 0x0E: 0x00
reg 0x0F: 0x01
reg 0x10: 0x02
reg 0x11: 0x01

.

Unique Device ID (UID) IS 20393239-56564308-0012001F
reg 0x00: 0x01ED  CM4       4.93 V
reg 0x01: 0x0000  Lidar1    0.00 V
reg 0x02: 0x0000  Lidar2    0.00 V
reg 0x03: 0x0000  CanBus    0.00 V
reg 0x04: 0x0233  Accessory 5.63 V
reg 0x05: 0x0207  Input5v   5.19 V
reg 0x06: 0x15F2  Batt      15.22 V
reg 0x07: 0x044E  MainPwr   11.02 V
reg 0x08: 0x0BB8  Temp      30.00 C
reg 0x09: 0x0148  VRefInt   (do not use)
reg 0x0A: 0x01
reg 0x0B: 0x01
reg 0x0C: 0x01
reg 0x0D: 0x02
reg 0x0E: 0x00
reg 0x0F: 0x01
reg 0x10: 0x02
reg 0x11: 0x01

.

Unique Device ID (UID) IS 20393239-56564308-0012001F
reg 0x00: 0x01F0  CM4       4.96 V
reg 0x01: 0x0000  Lidar1    0.00 V
reg 0x02: 0x0000  Lidar2    0.00 V
reg 0x03: 0x0000  CanBus    0.00 V
reg 0x04: 0x0234  Accessory 5.64 V
reg 0x05: 0x0209  Input5v   5.21 V
reg 0x06: 0x15F6  Batt      15.26 V
reg 0x07: 0x044C  MainPwr   11.00 V
reg 0x08: 0x0B54  Temp      29.00 C
reg 0x09: 0x0148  VRefInt   (do not use)
reg 0x0A: 0x01
reg 0x0B: 0x01
reg 0x0C: 0x01
reg 0x0D: 0x02
reg 0x0E: 0x00
reg 0x0F: 0x01
reg 0x10: 0x02
reg 0x11: 0x01

.

Unique Device ID (UID) IS 20393239-56564308-0012001F
reg 0x00: 0x01EF  CM4       4.95 V
reg 0x01: 0x0000  Lidar1    0.00 V
reg 0x02: 0x0000  Lidar2    0.00 V
reg 0x03: 0x0000  CanBus    0.00 V
reg 0x04: 0x0234  Accessory 5.64 V
reg 0x05: 0x0209  Input5v   5.21 V
reg 0x06: 0x15F8  Batt      15.28 V
reg 0x07: 0x044D  MainPwr   11.01 V
reg 0x08: 0x0B54  Temp      29.00 C
reg 0x09: 0x0148  VRefInt   (do not use)
reg 0x0A: 0x01
reg 0x0B: 0x01
reg 0x0C: 0x01
reg 0x0D: 0x02
reg 0x0E: 0x00
reg 0x0F: 0x01
reg 0x10: 0x02
reg 0x11: 0x01

.

Unique Device ID (UID) IS 20393239-56564308-0012001F
reg 0x00: 0x01F2  CM4       4.98 V
reg 0x01: 0x0000  Lidar1    0.00 V
reg 0x02: 0x0000  Lidar2    0.00 V
reg 0x03: 0x0000  CanBus    0.00 V
reg 0x04: 0x0234  Accessory 5.64 V
reg 0x05: 0x0207  Input5v   5.19 V
reg 0x06: 0x15FA  Batt      15.30 V
reg 0x07: 0x044D  MainPwr   11.01 V
reg 0x08: 0x0B54  Temp      29.00 C
reg 0x09: 0x0149  VRefInt   (do not use)
reg 0x0A: 0x01
reg 0x0B: 0x01
reg 0x0C: 0x01
reg 0x0D: 0x02
reg 0x0E: 0x00
reg 0x0F: 0x01
reg 0x10: 0x02
reg 0x11: 0x01

.

Unique Device ID (UID) IS 20393239-56564308-0012001F
reg 0x00: 0x01EE  CM4       4.94 V
reg 0x01: 0x0000  Lidar1    0.00 V
reg 0x02: 0x0000  Lidar2    0.00 V
reg 0x03: 0x0000  CanBus    0.00 V
reg 0x04: 0x0234  Accessory 5.64 V
reg 0x05: 0x020A  Input5v   5.22 V
reg 0x06: 0x1605  Batt      15.41 V
reg 0x07: 0x0450  MainPwr   11.04 V
reg 0x08: 0x0B54  Temp      29.00 C
reg 0x09: 0x0148  VRefInt   (do not use)
reg 0x0A: 0x01
reg 0x0B: 0x01
reg 0x0C: 0x01
reg 0x0D: 0x02
reg 0x0E: 0x00
reg 0x0F: 0x01
reg 0x10: 0x02
reg 0x11: 0x01

.

Unique Device ID (UID) IS 20393239-56564308-0012001F
reg 0x00: 0x01EC  CM4       4.92 V
reg 0x01: 0x0000  Lidar1    0.00 V
reg 0x02: 0x0000  Lidar2    0.00 V
reg 0x03: 0x0000  CanBus    0.00 V
reg 0x04: 0x0232  Accessory 5.62 V
reg 0x05: 0x0205  Input5v   5.17 V
reg 0x06: 0x15F6  Batt      15.26 V
reg 0x07: 0x044C  MainPwr   11.00 V
reg 0x08: 0x0B54  Temp      29.00 C
reg 0x09: 0x0148  VRefInt   (do not use)
reg 0x0A: 0x01
reg 0x0B: 0x01
reg 0x0C: 0x01
reg 0x0D: 0x02
reg 0x0E: 0x00
reg 0x0F: 0x01
reg 0x10: 0x02
reg 0x11: 0x01

.

Unique Device ID (UID) IS 20393239-56564308-0012001F
reg 0x00: 0x01ED  CM4       4.93 V
reg 0x01: 0x0000  Lidar1    0.00 V
reg 0x02: 0x0000  Lidar2    0.00 V
reg 0x03: 0x0000  CanBus    0.00 V
reg 0x04: 0x0233  Accessory 5.63 V
reg 0x05: 0x0207  Input5v   5.19 V
reg 0x06: 0x15F6  Batt      15.26 V
reg 0x07: 0x044C  MainPwr   11.00 V
reg 0x08: 0x0BF0  Temp      30.56 C
reg 0x09: 0x0149  VRefInt   (do not use)
reg 0x0A: 0x01
reg 0x0B: 0x01
reg 0x0C: 0x01
reg 0x0D: 0x02
reg 0x0E: 0x00
reg 0x0F: 0x01
reg 0x10: 0x02
reg 0x11: 0x01

.

Unique Device ID (UID) IS 20393239-56564308-0012001F
reg 0x00: 0x01F0  CM4       4.96 V
reg 0x01: 0x0000  Lidar1    0.00 V
reg 0x02: 0x0000  Lidar2    0.00 V
reg 0x03: 0x0000  CanBus    0.00 V
reg 0x04: 0x0232  Accessory 5.62 V
reg 0x05: 0x0205  Input5v   5.17 V
reg 0x06: 0x1609  Batt      15.45 V
reg 0x07: 0x044F  MainPwr   11.03 V
reg 0x08: 0x0B54  Temp      29.00 C
reg 0x09: 0x0148  VRefInt   (do not use)
reg 0x0A: 0x01
reg 0x0B: 0x01
reg 0x0C: 0x01
reg 0x0D: 0x02
reg 0x0E: 0x00
reg 0x0F: 0x01
reg 0x10: 0x02
reg 0x11: 0x01

.

Unique Device ID (UID) IS 20393239-56564308-0012001F
reg 0x00: 0x01EE  CM4       4.94 V
reg 0x01: 0x0000  Lidar1    0.00 V
reg 0x02: 0x0000  Lidar2    0.00 V
reg 0x03: 0x0000  CanBus    0.00 V
reg 0x04: 0x0234  Accessory 5.64 V
reg 0x05: 0x0207  Input5v   5.19 V
reg 0x06: 0x1509  Batt      12.89 V
reg 0x07: 0x044D  MainPwr   11.01 V
reg 0x08: 0x0B54  Temp      29.00 C
reg 0x09: 0x0148  VRefInt   (do not use)
reg 0x0A: 0x01
reg 0x0B: 0x01
reg 0x0C: 0x01
reg 0x0D: 0x02
reg 0x0E: 0x00
reg 0x0F: 0x01
reg 0x10: 0x02
reg 0x11: 0x01
