
minicom -D /dev/ttyACM0


Welcome to minicom 2.9

OPTIONS: I18n 
Port /dev/ttyACM0, 17:33:17

Press CTRL-A Z for help on special keys


.

Unique Device ID (UID) IS 20393239-56564308-0012001F
reg 0x00: 0x01F0  CM4       4.96 V
reg 0x01: 0x0000  Lidar1    0.00 V
reg 0x02: 0x0000  Lidar2    0.00 V
reg 0x03: 0x0000  CanBus    0.00 V
reg 0x04: 0x0234  Accessory 5.64 V
reg 0x05: 0x0209  Input5v   5.21 V
reg 0x06: 0x14B3  Batt      12.03 V
reg 0x07: 0x044F  MainPwr   11.03 V
reg 0x08: 0x0C80  Temp      32.00 C
reg 0x09: 0x0148  VRefInt   (do not use)
reg 0x0A: 0x01
reg 0x0B: 0x01
reg 0x0C: 0x01
reg 0x0D: 0x02
reg 0x0E: 0x00
reg 0x0F: 0x01
reg 0x10: 0x02
reg 0x11: 0x1F

.

Unique Device ID (UID) IS 20393239-56564308-0012001F
reg 0x00: 0x01F1  CM4       4.97 V
reg 0x01: 0x0000  Lidar1    0.00 V
reg 0x02: 0x0000  Lidar2    0.00 V
reg 0x03: 0x0000  CanBus    0.00 V
reg 0x04: 0x0231  Accessory 5.61 V
reg 0x05: 0x0207  Input5v   5.19 V
reg 0x06: 0x14A3  Batt      11.87 V
reg 0x07: 0x044C  MainPwr   11.00 V
reg 0x08: 0x0C80  Temp      32.00 C
reg 0x09: 0x0148  VRefInt   (do not use)
reg 0x0A: 0x01
reg 0x0B: 0x01
reg 0x0C: 0x01
reg 0x0D: 0x02
reg 0x0E: 0x00
reg 0x0F: 0x01
reg 0x10: 0x02
reg 0x11: 0x1F

.

Unique Device ID (UID) IS 20393239-56564308-0012001F
reg 0x00: 0x01EE  CM4       4.94 V
reg 0x01: 0x0000  Lidar1    0.00 V
reg 0x02: 0x0000  Lidar2    0.00 V
reg 0x03: 0x0000  CanBus    0.00 V
reg 0x04: 0x0233  Accessory 5.63 V
reg 0x05: 0x0207  Input5v   5.19 V
reg 0x06: 0x14A5  Batt      11.89 V
reg 0x07: 0x044C  MainPwr   11.00 V
reg 0x08: 0x0C80  Temp      32.00 C
reg 0x09: 0x0148  VRefInt   (do not use)
reg 0x0A: 0x01
reg 0x0B: 0x01
reg 0x0C: 0x01
reg 0x0D: 0x02
reg 0x0E: 0x00
reg 0x0F: 0x01
reg 0x10: 0x02
reg 0x11: 0x1F

.

Unique Device ID (UID) IS 20393239-56564308-0012001F
reg 0x00: 0x01EB  CM4       4.91 V
reg 0x01: 0x0000  Lidar1    0.00 V
reg 0x02: 0x0000  Lidar2    0.00 V
reg 0x03: 0x0000  CanBus    0.00 V
reg 0x04: 0x0231  Accessory 5.61 V
reg 0x05: 0x0206  Input5v   5.18 V
reg 0x06: 0x14B0  Batt      12.00 V
reg 0x07: 0x044D  MainPwr   11.01 V
reg 0x08: 0x0C80  Temp      32.00 C
reg 0x09: 0x0148  VRefInt   (do not use)
reg 0x0A: 0x01
reg 0x0B: 0x01
reg 0x0C: 0x01
reg 0x0D: 0x02
reg 0x0E: 0x00
reg 0x0F: 0x01
reg 0x10: 0x02
reg 0x11: 0x1F

.

Unique Device ID (UID) IS 20393239-56564308-0012001F
reg 0x00: 0x01EE  CM4       4.94 V
reg 0x01: 0x0000  Lidar1    0.00 V
reg 0x02: 0x0000  Lidar2    0.00 V
reg 0x03: 0x0000  CanBus    0.00 V
reg 0x04: 0x0232  Accessory 5.62 V
reg 0x05: 0x0205  Input5v   5.17 V
reg 0x06: 0x14AB  Batt      11.95 V
reg 0x07: 0x044C  MainPwr   11.00 V
reg 0x08: 0x0C80  Temp      32.00 C
reg 0x09: 0x0148  VRefInt   (do not use)
reg 0x0A: 0x01
reg 0x0B: 0x01
reg 0x0C: 0x01
reg 0x0D: 0x02
reg 0x0E: 0x00
reg 0x0F: 0x01
reg 0x10: 0x02
reg 0x11: 0x1F

.

Unique Device ID (UID) IS 20393239-56564308-0012001F
reg 0x00: 0x01EF  CM4       4.95 V
reg 0x01: 0x0000  Lidar1    0.00 V
reg 0x02: 0x0000  Lidar2    0.00 V
reg 0x03: 0x0000  CanBus    0.00 V
reg 0x04: 0x0231  Accessory 5.61 V
reg 0x05: 0x0206  Input5v   5.18 V
reg 0x06: 0x14B6  Batt      12.06 V
reg 0x07: 0x0450  MainPwr   11.04 V
reg 0x08: 0x0C80  Temp      32.00 C
reg 0x09: 0x0148  VRefInt   (do not use)
reg 0x0A: 0x01
reg 0x0B: 0x01
reg 0x0C: 0x01
reg 0x0D: 0x02
reg 0x0E: 0x00
reg 0x0F: 0x01
reg 0x10: 0x02
reg 0x11: 0x1F

.

Unique Device ID (UID) IS 20393239-56564308-0012001F
reg 0x00: 0x01ED  CM4       4.93 V
reg 0x01: 0x0000  Lidar1    0.00 V
reg 0x02: 0x0000  Lidar2    0.00 V
reg 0x03: 0x0000  CanBus    0.00 V
reg 0x04: 0x0232  Accessory 5.62 V
reg 0x05: 0x0207  Input5v   5.19 V
reg 0x06: 0x14A9  Batt      11.93 V
reg 0x07: 0x044D  MainPwr   11.01 V
reg 0x08: 0x0C80  Temp      32.00 C
reg 0x09: 0x0148  VRefInt   (do not use)
reg 0x0A: 0x01
reg 0x0B: 0x01
reg 0x0C: 0x01
reg 0x0D: 0x02
reg 0x0E: 0x00
reg 0x0F: 0x01
reg 0x10: 0x02
reg 0x11: 0x1F

.

Unique Device ID (UID) IS 20393239-56564308-0012001F
reg 0x00: 0x01F0  CM4       4.96 V
reg 0x01: 0x0000  Lidar1    0.00 V
reg 0x02: 0x0000  Lidar2    0.00 V
reg 0x03: 0x0000  CanBus    0.00 V
reg 0x04: 0x0233  Accessory 5.63 V
reg 0x05: 0x0207  Input5v   5.19 V
reg 0x06: 0x14B2  Batt      12.02 V
reg 0x07: 0x044E  MainPwr   11.02 V
reg 0x08: 0x0C80  Temp      32.00 C
reg 0x09: 0x0148  VRefInt   (do not use)
reg 0x0A: 0x01
reg 0x0B: 0x01
reg 0x0C: 0x01
reg 0x0D: 0x02
reg 0x0E: 0x00
reg 0x0F: 0x01
reg 0x10: 0x02
reg 0x11: 0x1F

.

Unique Device ID (UID) IS 20393239-56564308-0012001F
reg 0x00: 0x01EF  CM4       4.95 V
reg 0x01: 0x0000  Lidar1    0.00 V
reg 0x02: 0x0000  Lidar2    0.00 V
reg 0x03: 0x0000  CanBus    0.00 V
reg 0x04: 0x0231  Accessory 5.61 V
reg 0x05: 0x0206  Input5v   5.18 V
reg 0x06: 0x14A1  Batt      11.85 V
reg 0x07: 0x044E  MainPwr   11.02 V
reg 0x08: 0x0C80  Temp      32.00 C
reg 0x09: 0x0148  VRefInt   (do not use)
reg 0x0A: 0x01
reg 0x0B: 0x01
reg 0x0C: 0x01
reg 0x0D: 0x02
reg 0x0E: 0x00
reg 0x0F: 0x01
reg 0x10: 0x02
reg 0x11: 0x1F

.

Unique Device ID (UID) IS 20393239-56564308-0012001F
reg 0x00: 0x01F2  CM4       4.98 V
reg 0x01: 0x0000  Lidar1    0.00 V
reg 0x02: 0x0000  Lidar2    0.00 V
reg 0x03: 0x0000  CanBus    0.00 V
reg 0x04: 0x0231  Accessory 5.61 V
reg 0x05: 0x0206  Input5v   5.18 V
reg 0x06: 0x14A7  Batt      11.91 V
reg 0x07: 0x0449  MainPwr   10.97 V
reg 0x08: 0x0C1C  Temp      31.00 C
reg 0x09: 0x0148  VRefInt   (do not use)
reg 0x0A: 0x01
reg 0x0B: 0x01
reg 0x0C: 0x01
reg 0x0D: 0x02
reg 0x0E: 0x00
reg 0x0F: 0x01
reg 0x10: 0x02
reg 0x11: 0x1F

.

Unique Device ID (UID) IS 20393239-56564308-0012001F
reg 0x00: 0x01F2  CM4       4.98 V
reg 0x01: 0x0000  Lidar1    0.00 V
reg 0x02: 0x0000  Lidar2    0.00 V
reg 0x03: 0x0000  CanBus    0.00 V
reg 0x04: 0x0232  Accessory 5.62 V
reg 0x05: 0x0206  Input5v   5.18 V
reg 0x06: 0x149C  Batt      11.80 V
reg 0x07: 0x044D  MainPwr   11.01 V
reg 0x08: 0x0C80  Temp      32.00 C
reg 0x09: 0x0148  VRefInt   (do not use)
reg 0x0A: 0x01
reg 0x0B: 0x01
reg 0x0C: 0x01
reg 0x0D: 0x02
reg 0x0E: 0x00
reg 0x0F: 0x01
reg 0x10: 0x02
reg 0x11: 0x1F

.

Unique Device ID (UID) IS 20393239-56564308-0012001F
reg 0x00: 0x01F1  CM4       4.97 V
reg 0x01: 0x0000  Lidar1    0.00 V
reg 0x02: 0x0000  Lidar2    0.00 V
reg 0x03: 0x0000  CanBus    0.00 V
reg 0x04: 0x0231  Accessory 5.61 V
reg 0x05: 0x0206  Input5v   5.18 V
reg 0x06: 0x14AE  Batt      11.98 V
reg 0x07: 0x044C  MainPwr   11.00 V
reg 0x08: 0x0C80  Temp      32.00 C
reg 0x09: 0x0148  VRefInt   (do not use)
reg 0x0A: 0x01
reg 0x0B: 0x01
reg 0x0C: 0x01
reg 0x0D: 0x02
reg 0x0E: 0x00
reg 0x0F: 0x01
reg 0x10: 0x02
reg 0x11: 0x1F

.

Unique Device ID (UID) IS 20393239-56564308-0012001F
reg 0x00: 0x01EE  CM4       4.94 V
reg 0x01: 0x0000  Lidar1    0.00 V
reg 0x02: 0x0000  Lidar2    0.00 V
reg 0x03: 0x0000  CanBus    0.00 V
reg 0x04: 0x0234  Accessory 5.64 V
reg 0x05: 0x0206  Input5v   5.18 V
reg 0x06: 0x14A1  Batt      11.85 V
reg 0x07: 0x044D  MainPwr   11.01 V
reg 0x08: 0x0C80  Temp      32.00 C
reg 0x09: 0x0148  VRefInt   (do not use)
reg 0x0A: 0x01
reg 0x0B: 0x01
reg 0x0C: 0x01
reg 0x0D: 0x02
reg 0x0E: 0x00
reg 0x0F: 0x01
reg 0x10: 0x02
reg 0x11: 0x1F

.

Unique Device ID (UID) IS 20393239-56564308-0012001F
reg 0x00: 0x01F2  CM4       4.98 V
reg 0x01: 0x0000  Lidar1    0.00 V
reg 0x02: 0x0000  Lidar2    0.00 V
reg 0x03: 0x0000  CanBus    0.00 V
reg 0x04: 0x0231  Accessory 5.61 V
reg 0x05: 0x0206  Input5v   5.18 V
reg 0x06: 0x1489  Batt      11.61 V
reg 0x07: 0x044B  MainPwr   10.99 V
reg 0x08: 0x0C80  Temp      32.00 C
reg 0x09: 0x0148  VRefInt   (do not use)
reg 0x0A: 0x01
reg 0x0B: 0x01
reg 0x0C: 0x01
reg 0x0D: 0x02
reg 0x0E: 0x00
reg 0x0F: 0x01
reg 0x10: 0x02
reg 0x11: 0x1F

.

Unique Device ID (UID) IS 20393239-56564308-0012001F
reg 0x00: 0x01EE  CM4       4.94 V
reg 0x01: 0x0000  Lidar1    0.00 V
reg 0x02: 0x0000  Lidar2    0.00 V
reg 0x03: 0x0000  CanBus    0.00 V
reg 0x04: 0x0232  Accessory 5.62 V                                                                       
reg 0x05: 0x0207  Input5v   5.19 V                                                                       
reg 0x06: 0x14A1  Batt      11.85 V                                                                      
reg 0x07: 0x044D  MainPwr   11.01 V                                                                      
reg 0x08: 0x0CE4  Temp      33.00 C
reg 0x09: 0x0148  VRefInt   (do not use)
reg 0x0A: 0x01
reg 0x0B: 0x01
reg 0x0C: 0x01
reg 0x0D: 0x02
reg 0x0E: 0x00
reg 0x0F: 0x01
reg 0x10: 0x02
reg 0x11: 0x1F

.

Unique Device ID (UID) IS 20393239-56564308-0012001F
reg 0x00: 0x01EB  CM4       4.91 V
reg 0x01: 0x0000  Lidar1    0.00 V
reg 0x02: 0x0000  Lidar2    0.00 V
reg 0x03: 0x0000  CanBus    0.00 V
reg 0x04: 0x0231  Accessory 5.61 V
reg 0x05: 0x0208  Input5v   5.20 V
reg 0x06: 0x14BD  Batt      12.13 V
reg 0x07: 0x0451  MainPwr   11.05 V
reg 0x08: 0x0C80  Temp      32.00 C
reg 0x09: 0x0148  VRefInt   (do not use)
reg 0x0A: 0x01
reg 0x0B: 0x01
reg 0x0C: 0x01
reg 0x0D: 0x02
reg 0x0E: 0x00
reg 0x0F: 0x01
reg 0x10: 0x02
reg 0x11: 0x1F

.

Unique Device ID (UID) IS 20393239-56564308-0012001F
reg 0x00: 0x01EF  CM4       4.95 V
reg 0x01: 0x0000  Lidar1    0.00 V
reg 0x02: 0x0000  Lidar2    0.00 V
reg 0x03: 0x0000  CanBus    0.00 V
reg 0x04: 0x0231  Accessory 5.61 V
reg 0x05: 0x0205  Input5v   5.17 V
reg 0x06: 0x14A3  Batt      11.87 V
reg 0x07: 0x044C  MainPwr   11.00 V
reg 0x08: 0x0C80  Temp      32.00 C
reg 0x09: 0x0148  VRefInt   (do not use)
reg 0x0A: 0x01
reg 0x0B: 0x01
reg 0x0C: 0x01
reg 0x0D: 0x02
reg 0x0E: 0x00
reg 0x0F: 0x01
reg 0x10: 0x02
reg 0x11: 0x1F

.

Unique Device ID (UID) IS 20393239-56564308-0012001F
reg 0x00: 0x01EE  CM4       4.94 V
reg 0x01: 0x0000  Lidar1    0.00 V
reg 0x02: 0x0000  Lidar2    0.00 V
reg 0x03: 0x0000  CanBus    0.00 V
reg 0x04: 0x0232  Accessory 5.62 V
reg 0x05: 0x0207  Input5v   5.19 V
reg 0x06: 0x1498  Batt      11.76 V
reg 0x07: 0x0450  MainPwr   11.04 V
reg 0x08: 0x0C80  Temp      32.00 C
reg 0x09: 0x0148  VRefInt   (do not use)
reg 0x0A: 0x01
reg 0x0B: 0x01
reg 0x0C: 0x01
reg 0x0D: 0x02
reg 0x0E: 0x00
reg 0x0F: 0x01
reg 0x10: 0x02
reg 0x11: 0x1F

.

Unique Device ID (UID) IS 20393239-56564308-0012001F
reg 0x00: 0x01EF  CM4       4.95 V
reg 0x01: 0x0000  Lidar1    0.00 V
reg 0x02: 0x0000  Lidar2    0.00 V
reg 0x03: 0x0000  CanBus    0.00 V
reg 0x04: 0x0233  Accessory 5.63 V
reg 0x05: 0x0207  Input5v   5.19 V
reg 0x06: 0x14A1  Batt      11.85 V
reg 0x07: 0x044B  MainPwr   10.99 V
reg 0x08: 0x0C80  Temp      32.00 C
reg 0x09: 0x0148  VRefInt   (do not use)
reg 0x0A: 0x01
reg 0x0B: 0x01
reg 0x0C: 0x01
reg 0x0D: 0x02
reg 0x0E: 0x00
reg 0x0F: 0x01
reg 0x10: 0x02
reg 0x11: 0x1F

.

Unique Device ID (UID) IS 20393239-56564308-0012001F
reg 0x00: 0x01F0  CM4       4.96 V
reg 0x01: 0x0000  Lidar1    0.00 V
reg 0x02: 0x0000  Lidar2    0.00 V
reg 0x03: 0x0000  CanBus    0.00 V
reg 0x04: 0x0232  Accessory 5.62 V
reg 0x05: 0x0207  Input5v   5.19 V
reg 0x06: 0x14B9  Batt      12.09 V
reg 0x07: 0x044E  MainPwr   11.02 V
reg 0x08: 0x0C80  Temp      32.00 C
reg 0x09: 0x0148  VRefInt   (do not use)
reg 0x0A: 0x01
reg 0x0B: 0x01
reg 0x0C: 0x01
reg 0x0D: 0x02
reg 0x0E: 0x00
reg 0x0F: 0x01
reg 0x10: 0x02
reg 0x11: 0x1F

.

Unique Device ID (UID) IS 20393239-56564308-0012001F
reg 0x00: 0x01F0  CM4       4.96 V
reg 0x01: 0x0000  Lidar1    0.00 V
reg 0x02: 0x0000  Lidar2    0.00 V
reg 0x03: 0x0000  CanBus    0.00 V
reg 0x04: 0x0233  Accessory 5.63 V
reg 0x05: 0x0207  Input5v   5.19 V
reg 0x06: 0x14A1  Batt      11.85 V
reg 0x07: 0x044F  MainPwr   11.03 V
reg 0x08: 0x0C80  Temp      32.00 C
reg 0x09: 0x0148  VRefInt   (do not use)
reg 0x0A: 0x01
reg 0x0B: 0x01
reg 0x0C: 0x01
reg 0x0D: 0x02
reg 0x0E: 0x00
reg 0x0F: 0x01
reg 0x10: 0x02
reg 0x11: 0x1F

.

Unique Device ID (UID) IS 20393239-56564308-0012001F
reg 0x00: 0x01F2  CM4       4.98 V
reg 0x01: 0x0000  Lidar1    0.00 V
reg 0x02: 0x0000  Lidar2    0.00 V
reg 0x03: 0x0000  CanBus    0.00 V
reg 0x04: 0x0232  Accessory 5.62 V
reg 0x05: 0x0207  Input5v   5.19 V
reg 0x06: 0x1496  Batt      11.74 V
reg 0x07: 0x044C  MainPwr   11.00 V
reg 0x08: 0x0C1C  Temp      31.00 C
reg 0x09: 0x0148  VRefInt   (do not use)
reg 0x0A: 0x01
reg 0x0B: 0x01
reg 0x0C: 0x01
reg 0x0D: 0x02
reg 0x0E: 0x00
reg 0x0F: 0x01
reg 0x10: 0x02
reg 0x11: 0x1F

.

Unique Device ID (UID) IS 20393239-56564308-0012001F
reg 0x00: 0x01EE  CM4       4.94 V
reg 0x01: 0x0000  Lidar1    0.00 V
reg 0x02: 0x0000  Lidar2    0.00 V
reg 0x03: 0x0000  CanBus    0.00 V
reg 0x04: 0x0232  Accessory 5.62 V
reg 0x05: 0x0207  Input5v   5.19 V
reg 0x06: 0x149C  Batt      11.80 V
reg 0x07: 0x044E  MainPwr   11.02 V
reg 0x08: 0x0C1C  Temp      31.00 C
reg 0x09: 0x0149  VRefInt   (do not use)
reg 0x0A: 0x01
reg 0x0B: 0x01
reg 0x0C: 0x01
reg 0x0D: 0x02
reg 0x0E: 0x00
reg 0x0F: 0x01
reg 0x10: 0x02
reg 0x11: 0x1F

.

Unique Device ID (UID) IS 20393239-56564308-0012001F
reg 0x00: 0x01F0  CM4       4.96 V
reg 0x01: 0x0000  Lidar1    0.00 V
reg 0x02: 0x0000  Lidar2    0.00 V
reg 0x03: 0x0000  CanBus    0.00 V
reg 0x04: 0x0232  Accessory 5.62 V
reg 0x05: 0x0207  Input5v   5.19 V
reg 0x06: 0x14A6  Batt      11.90 V
reg 0x07: 0x044E  MainPwr   11.02 V
reg 0x08: 0x0C80  Temp      32.00 C
reg 0x09: 0x0148  VRefInt   (do not use)
reg 0x0A: 0x01
reg 0x0B: 0x01
reg 0x0C: 0x01
reg 0x0D: 0x02
reg 0x0E: 0x00
reg 0x0F: 0x01
reg 0x10: 0x02
reg 0x11: 0x1F

.

Unique Device ID (UID) IS 20393239-56564308-0012001F
reg 0x00: 0x01F0  CM4       4.96 V
reg 0x01: 0x0000  Lidar1    0.00 V
reg 0x02: 0x0000  Lidar2    0.00 V
reg 0x03: 0x0000  CanBus    0.00 V
reg 0x04: 0x0232  Accessory 5.62 V
reg 0x05: 0x0207  Input5v   5.19 V
reg 0x06: 0x14B0  Batt      12.00 V
reg 0x07: 0x044D  MainPwr   11.01 V
reg 0x08: 0x0C80  Temp      32.00 C
reg 0x09: 0x0148  VRefInt   (do not use)
reg 0x0A: 0x01
reg 0x0B: 0x01
reg 0x0C: 0x01
reg 0x0D: 0x02
reg 0x0E: 0x00
reg 0x0F: 0x01
reg 0x10: 0x02
reg 0x11: 0x1F

.

Unique Device ID (UID) IS 20393239-56564308-0012001F
reg 0x00: 0x01EC  CM4       4.92 V
reg 0x01: 0x0000  Lidar1    0.00 V
reg 0x02: 0x0000  Lidar2    0.00 V
reg 0x03: 0x0000  CanBus    0.00 V
reg 0x04: 0x0231  Accessory 5.61 V
reg 0x05: 0x0206  Input5v   5.18 V
reg 0x06: 0x1494  Batt      11.72 V
reg 0x07: 0x044C  MainPwr   11.00 V
reg 0x08: 0x0C1C  Temp      31.00 C
reg 0x09: 0x0148  VRefInt   (do not use)
reg 0x0A: 0x01
reg 0x0B: 0x01
reg 0x0C: 0x01
reg 0x0D: 0x02
reg 0x0E: 0x00
reg 0x0F: 0x01
reg 0x10: 0x02
reg 0x11: 0x1F

.

Unique Device ID (UID) IS 20393239-56564308-0012001F
reg 0x00: 0x01EE  CM4       4.94 V
reg 0x01: 0x0000  Lidar1    0.00 V
reg 0x02: 0x0000  Lidar2    0.00 V
reg 0x03: 0x0000  CanBus    0.00 V
reg 0x04: 0x0232  Accessory 5.62 V
reg 0x05: 0x0208  Input5v   5.20 V
reg 0x06: 0x14A5  Batt      11.89 V
reg 0x07: 0x044C  MainPwr   11.00 V
reg 0x08: 0x0C80  Temp      32.00 C
reg 0x09: 0x0148  VRefInt   (do not use)
reg 0x0A: 0x01
reg 0x0B: 0x01
reg 0x0C: 0x01
reg 0x0D: 0x02
reg 0x0E: 0x00
reg 0x0F: 0x01
reg 0x10: 0x02
reg 0x11: 0x1F

.

Unique Device ID (UID) IS 20393239-56564308-0012001F
reg 0x00: 0x01EF  CM4       4.95 V
reg 0x01: 0x0000  Lidar1    0.00 V
reg 0x02: 0x0000  Lidar2    0.00 V
reg 0x03: 0x0000  CanBus    0.00 V
reg 0x04: 0x0231  Accessory 5.61 V
reg 0x05: 0x0207  Input5v   5.19 V
reg 0x06: 0x14A3  Batt      11.87 V
reg 0x07: 0x044D  MainPwr   11.01 V
reg 0x08: 0x0C80  Temp      32.00 C
reg 0x09: 0x0148  VRefInt   (do not use)
reg 0x0A: 0x01
reg 0x0B: 0x01
reg 0x0C: 0x01
reg 0x0D: 0x02
reg 0x0E: 0x00
reg 0x0F: 0x01
reg 0x10: 0x02
reg 0x11: 0x1F

.

Unique Device ID (UID) IS 20393239-56564308-0012001F
reg 0x00: 0x01F1  CM4       4.97 V
reg 0x01: 0x0000  Lidar1    0.00 V
reg 0x02: 0x0000  Lidar2    0.00 V
reg 0x03: 0x0000  CanBus    0.00 V
reg 0x04: 0x0232  Accessory 5.62 V
reg 0x05: 0x0207  Input5v   5.19 V
reg 0x06: 0x14B0  Batt      12.00 V
reg 0x07: 0x044C  MainPwr   11.00 V
reg 0x08: 0x0C80  Temp      32.00 C
reg 0x09: 0x0149  VRefInt   (do not use)
reg 0x0A: 0x01
reg 0x0B: 0x01
reg 0x0C: 0x01
reg 0x0D: 0x02
reg 0x0E: 0x00
reg 0x0F: 0x01
reg 0x10: 0x02
reg 0x11: 0x1F

.

Unique Device ID (UID) IS 20393239-56564308-0012001F
reg 0x00: 0x01EF  CM4       4.95 V
reg 0x01: 0x0000  Lidar1    0.00 V
reg 0x02: 0x0000  Lidar2    0.00 V
reg 0x03: 0x0000  CanBus    0.00 V
reg 0x04: 0x0231  Accessory 5.61 V
reg 0x05: 0x0205  Input5v   5.17 V
reg 0x06: 0x149D  Batt      11.81 V
reg 0x07: 0x044C  MainPwr   11.00 V
reg 0x08: 0x0CE4  Temp      33.00 C
reg 0x09: 0x0147  VRefInt   (do not use)
reg 0x0A: 0x01
reg 0x0B: 0x01
reg 0x0C: 0x01
reg 0x0D: 0x02
reg 0x0E: 0x00
reg 0x0F: 0x01
reg 0x10: 0x02
reg 0x11: 0x1F

.

Unique Device ID (UID) IS 20393239-56564308-0012001F
reg 0x00: 0x01F1  CM4       4.97 V
reg 0x01: 0x0000  Lidar1    0.00 V
reg 0x02: 0x0000  Lidar2    0.00 V
reg 0x03: 0x0000  CanBus    0.00 V
reg 0x04: 0x0231  Accessory 5.61 V
reg 0x05: 0x0208  Input5v   5.20 V
reg 0x06: 0x14B1  Batt      12.01 V
reg 0x07: 0x044F  MainPwr   11.03 V
reg 0x08: 0x0C80  Temp      32.00 C
reg 0x09: 0x0148  VRefInt   (do not use)
reg 0x0A: 0x01
reg 0x0B: 0x01
reg 0x0C: 0x01
reg 0x0D: 0x02
reg 0x0E: 0x00
reg 0x0F: 0x01
reg 0x10: 0x02
reg 0x11: 0x1F

.

Unique Device ID (UID) IS 20393239-56564308-0012001F
reg 0x00: 0x01EF  CM4       4.95 V
reg 0x01: 0x0000  Lidar1    0.00 V
reg 0x02: 0x0000  Lidar2    0.00 V
reg 0x03: 0x0000  CanBus    0.00 V
reg 0x04: 0x0232  Accessory 5.62 V
reg 0x05: 0x0206  Input5v   5.18 V
reg 0x06: 0x14A5  Batt      11.89 V
reg 0x07: 0x044D  MainPwr   11.01 V
reg 0x08: 0x0C80  Temp      32.00 C
reg 0x09: 0x0148  VRefInt   (do not use)
reg 0x0A: 0x01
reg 0x0B: 0x01
reg 0x0C: 0x01
reg 0x0D: 0x02
reg 0x0E: 0x00
reg 0x0F: 0x01
reg 0x10: 0x02
reg 0x11: 0x1F

.

Unique Device ID (UID) IS 20393239-56564308-0012001F
reg 0x00: 0x01F0  CM4       4.96 V
reg 0x01: 0x0000  Lidar1    0.00 V
reg 0x02: 0x0000  Lidar2    0.00 V
reg 0x03: 0x0000  CanBus    0.00 V
reg 0x04: 0x0232  Accessory 5.62 V
reg 0x05: 0x0206  Input5v   5.18 V
reg 0x06: 0x14A1  Batt      11.85 V
reg 0x07: 0x044C  MainPwr   11.00 V
reg 0x08: 0x0CE4  Temp      33.00 C
reg 0x09: 0x0148  VRefInt   (do not use)
reg 0x0A: 0x01
reg 0x0B: 0x01
reg 0x0C: 0x01
reg 0x0D: 0x02
reg 0x0E: 0x00
reg 0x0F: 0x01
reg 0x10: 0x02
reg 0x11: 0x1F

.

Unique Device ID (UID) IS 20393239-56564308-0012001F
reg 0x00: 0x01EF  CM4       4.95 V
reg 0x01: 0x0000  Lidar1    0.00 V
reg 0x02: 0x0000  Lidar2    0.00 V
reg 0x03: 0x0000  CanBus    0.00 V
reg 0x04: 0x0231  Accessory 5.61 V
reg 0x05: 0x0206  Input5v   5.18 V
reg 0x06: 0x149C  Batt      11.80 V
reg 0x07: 0x044E  MainPwr   11.02 V
reg 0x08: 0x0CE4  Temp      33.00 C
reg 0x09: 0x0148  VRefInt   (do not use)
reg 0x0A: 0x01
reg 0x0B: 0x01
reg 0x0C: 0x01
reg 0x0D: 0x02
reg 0x0E: 0x00
reg 0x0F: 0x01
reg 0x10: 0x02
reg 0x11: 0x1F

.

Unique Device ID (UID) IS 20393239-56564308-0012001F
reg 0x00: 0x01F0  CM4       4.96 V
reg 0x01: 0x0000  Lidar1    0.00 V
reg 0x02: 0x0000  Lidar2    0.00 V
reg 0x03: 0x0001  CanBus    0.01 V
reg 0x04: 0x0231  Accessory 5.61 V                                                                       
reg 0x05: 0x0207  Input5v   5.19 V                                                                       
reg 0x06: 0x14B4  Batt      12.04 V                                                                      
reg 0x07: 0x044D  MainPwr   11.01 V                                                                      
reg 0x08: 0x0C80  Temp      32.00 C
reg 0x09: 0x0148  VRefInt   (do not use)
reg 0x0A: 0x01
reg 0x0B: 0x01
reg 0x0C: 0x01
reg 0x0D: 0x02
reg 0x0E: 0x00
reg 0x0F: 0x01
reg 0x10: 0x02
reg 0x11: 0x1F

.

Unique Device ID (UID) IS 20393239-56564308-0012001F
reg 0x00: 0x01ED  CM4       4.93 V
reg 0x01: 0x0000  Lidar1    0.00 V
reg 0x02: 0x0000  Lidar2    0.00 V
reg 0x03: 0x0000  CanBus    0.00 V
reg 0x04: 0x0232  Accessory 5.62 V
reg 0x05: 0x0207  Input5v   5.19 V
reg 0x06: 0x14A7  Batt      11.91 V
reg 0x07: 0x044D  MainPwr   11.01 V
reg 0x08: 0x0C80  Temp      32.00 C
reg 0x09: 0x0148  VRefInt   (do not use)
reg 0x0A: 0x01
reg 0x0B: 0x01
reg 0x0C: 0x01
reg 0x0D: 0x02
reg 0x0E: 0x00
reg 0x0F: 0x01
reg 0x10: 0x02
reg 0x11: 0x1F

CTRL-A Z for help | 115200 8N1 | NOR | Minicom 2.9 | VT102 | Offline | ttyACM0                                                                                                         
artem@artem-Inspiron-15-3530:
17:34:24 ~
minicom -D /dev/ttyACM0











































Welcome to minicom 2.9

OPTIONS: I18n 
Port /dev/ttyACM0, 17:34:20

Press CTRL-A Z for help on special keys

ID (UID) IS 20393239-56564308-0012001F
reg 0x00: 0x01EF  CM4       4.95 V
reg 0x01: 0x0000  Lidar1    0.00 V
reg 0x02: 0x0000  Lidar2    0.00 V
reg 0x03: 0x0000  CanBus    0.00 V
reg 0x04: 0x0232  Accessory 5.62 V
reg 0x05: 0x0206  Input5v   5.18 V
reg 0x06: 0x149C  Batt      11.80 V
reg 0x07: 0x044E  MainPwr   11.02 V
reg 0x08: 0x0CE4  Temp      33.00 C
reg 0x09: 0x0148  VRefInt   (do not use)
reg 0x0A: 0x01
reg 0x0B: 0x01
reg 0x0C: 0x01
reg 0x0D: 0x02
reg 0x0E: 0x00
reg 0x0F: 0x01
reg 0x10: 0x02
reg 0x11: 0x1F

.

Unique Device ID (UID) IS 20393239-56564308-0012001F
reg 0x00: 0x01F0  CM4       4.96 V
reg 0x01: 0x0000  Lidar1    0.00 V
reg 0x02: 0x0000  Lidar2    0.00 V
reg 0x03: 0x0000  CanBus    0.00 V
reg 0x04: 0x0231  Accessory 5.61 V
reg 0x05: 0x0207  Input5v   5.19 V
reg 0x06: 0x14AB  Batt      11.95 V
reg 0x07: 0x044D  MainPwr   11.01 V
reg 0x08: 0x0C80  Temp      32.00 C
reg 0x09: 0x0148  VRefInt   (do not use)
reg 0x0A: 0x01
reg 0x0B: 0x01
reg 0x0C: 0x01
reg 0x0D: 0x02
reg 0x0E: 0x00
reg 0x0F: 0x01
reg 0x10: 0x02
reg 0x11: 0x1F

.

Unique Device ID (UID) IS 20393239-56564308-0012001F
reg 0x00: 0x01EC  CM4       4.92 V
reg 0x01: 0x0000  Lidar1    0.00 V
reg 0x02: 0x0000  Lidar2    0.00 V
reg 0x03: 0x0000  CanBus    0.00 V
reg 0x04: 0x0232  Accessory 5.62 V
reg 0x05: 0x0207  Input5v   5.19 V
reg 0x06: 0x149D  Batt      11.81 V
reg 0x07: 0x0449  MainPwr   10.97 V
reg 0x08: 0x0C80  Temp      32.00 C
reg 0x09: 0x0148  VRefInt   (do not use)
reg 0x0A: 0x01
reg 0x0B: 0x01
reg 0x0C: 0x01
reg 0x0D: 0x02
reg 0x0E: 0x00
reg 0x0F: 0x01
reg 0x10: 0x02
reg 0x11: 0x1F

.

Unique Device ID (UID) IS 20393239-56564308-0012001F
reg 0x00: 0x01F1  CM4       4.97 V
reg 0x01: 0x0000  Lidar1    0.00 V
reg 0x02: 0x0000  Lidar2    0.00 V
reg 0x03: 0x0000  CanBus    0.00 V
reg 0x04: 0x0232  Accessory 5.62 V
reg 0x05: 0x0207  Input5v   5.19 V
reg 0x06: 0x149F  Batt      11.83 V
reg 0x07: 0x044D  MainPwr   11.01 V
reg 0x08: 0x0CE4  Temp      33.00 C
reg 0x09: 0x0148  VRefInt   (do not use)
reg 0x0A: 0x01
reg 0x0B: 0x01
reg 0x0C: 0x01
reg 0x0D: 0x02
reg 0x0E: 0x00
reg 0x0F: 0x01
reg 0x10: 0x02
reg 0x11: 0x1F

.

Unique Device ID (UID) IS 20393239-56564308-0012001F
reg 0x00: 0x01EE  CM4       4.94 V
reg 0x01: 0x0000  Lidar1    0.00 V
reg 0x02: 0x0000  Lidar2    0.00 V
reg 0x03: 0x0000  CanBus    0.00 V
reg 0x04: 0x0231  Accessory 5.61 V
reg 0x05: 0x0206  Input5v   5.18 V
reg 0x06: 0x1496  Batt      11.74 V
reg 0x07: 0x044F  MainPwr   11.03 V
reg 0x08: 0x0C80  Temp      32.00 C
reg 0x09: 0x0148  VRefInt   (do not use)
reg 0x0A: 0x01
reg 0x0B: 0x01
reg 0x0C: 0x01
reg 0x0D: 0x02
reg 0x0E: 0x00
reg 0x0F: 0x01
reg 0x10: 0x02
reg 0x11: 0x1F

.

Unique Device ID (UID) IS 20393239-56564308-0012001F
reg 0x00: 0x01EE  CM4       4.94 V
reg 0x01: 0x0000  Lidar1    0.00 V
reg 0x02: 0x0000  Lidar2    0.00 V
reg 0x03: 0x0000  CanBus    0.00 V
reg 0x04: 0x0231  Accessory 5.61 V
reg 0x05: 0x0206  Input5v   5.18 V
reg 0x06: 0x14C2  Batt      12.18 V
reg 0x07: 0x044C  MainPwr   11.00 V
reg 0x08: 0x0C80  Temp      32.00 C
reg 0x09: 0x0148  VRefInt   (do not use)
reg 0x0A: 0x01
reg 0x0B: 0x01
reg 0x0C: 0x01
reg 0x0D: 0x02
reg 0x0E: 0x00
reg 0x0F: 0x01
reg 0x10: 0x02
reg 0x11: 0x1F

.

Unique Device ID (UID) IS 20393239-56564308-0012001F
reg 0x00: 0x01F1  CM4       4.97 V
reg 0x01: 0x0000  Lidar1    0.00 V
reg 0x02: 0x0000  Lidar2    0.00 V
reg 0x03: 0x0000  CanBus    0.00 V
reg 0x04: 0x0232  Accessory 5.62 V
reg 0x05: 0x0206  Input5v   5.18 V
reg 0x06: 0x14A7  Batt      11.91 V
reg 0x07: 0x044C  MainPwr   11.00 V
reg 0x08: 0x0C80  Temp      32.00 C
reg 0x09: 0x0148  VRefInt   (do not use)
reg 0x0A: 0x01
reg 0x0B: 0x01
reg 0x0C: 0x01
reg 0x0D: 0x02
reg 0x0E: 0x00
reg 0x0F: 0x01
reg 0x10: 0x02
reg 0x11: 0x1F

.

Unique Device ID (UID) IS 20393239-56564308-0012001F
reg 0x00: 0x01EF  CM4       4.95 V
reg 0x01: 0x0000  Lidar1    0.00 V
reg 0x02: 0x0000  Lidar2    0.00 V
reg 0x03: 0x0000  CanBus    0.00 V
reg 0x04: 0x0232  Accessory 5.62 V
reg 0x05: 0x0207  Input5v   5.19 V
reg 0x06: 0x14A1  Batt      11.85 V
reg 0x07: 0x044E  MainPwr   11.02 V
reg 0x08: 0x0C80  Temp      32.00 C
reg 0x09: 0x0149  VRefInt   (do not use)
reg 0x0A: 0x01
reg 0x0B: 0x01
reg 0x0C: 0x01
reg 0x0D: 0x02
reg 0x0E: 0x00
reg 0x0F: 0x01
reg 0x10: 0x02
reg 0x11: 0x1F

.

Unique Device ID (UID) IS 20393239-56564308-0012001F
reg 0x00: 0x01EF  CM4       4.95 V
reg 0x01: 0x0000  Lidar1    0.00 V
reg 0x02: 0x0000  Lidar2    0.00 V
reg 0x03: 0x0000  CanBus    0.00 V
reg 0x04: 0x0233  Accessory 5.63 V
reg 0x05: 0x0208  Input5v   5.20 V
reg 0x06: 0x14AB  Batt      11.95 V
reg 0x07: 0x044C  MainPwr   11.00 V
reg 0x08: 0x0C80  Temp      32.00 C
reg 0x09: 0x0148  VRefInt   (do not use)
reg 0x0A: 0x01
reg 0x0B: 0x01
reg 0x0C: 0x01
reg 0x0D: 0x02
reg 0x0E: 0x00
reg 0x0F: 0x01
reg 0x10: 0x02
reg 0x11: 0x1F

.

Unique Device ID (UID) IS 20393239-56564308-0012001F
reg 0x00: 0x01ED  CM4       4.93 V
reg 0x01: 0x0000  Lidar1    0.00 V
reg 0x02: 0x0000  Lidar2    0.00 V
reg 0x03: 0x0000  CanBus    0.00 V
reg 0x04: 0x0232  Accessory 5.62 V
reg 0x05: 0x0207  Input5v   5.19 V
reg 0x06: 0x14AB  Batt      11.95 V
reg 0x07: 0x0450  MainPwr   11.04 V
reg 0x08: 0x0C80  Temp      32.00 C
reg 0x09: 0x0148  VRefInt   (do not use)
reg 0x0A: 0x01
reg 0x0B: 0x01
reg 0x0C: 0x01
reg 0x0D: 0x02
reg 0x0E: 0x00
reg 0x0F: 0x01
reg 0x10: 0x02
reg 0x11: 0x1F

.

Unique Device ID (UID) IS 20393239-56564308-0012001F
reg 0x00: 0x01F1  CM4       4.97 V
reg 0x01: 0x0000  Lidar1    0.00 V
reg 0x02: 0x0000  Lidar2    0.00 V
reg 0x03: 0x0000  CanBus    0.00 V
reg 0x04: 0x0231  Accessory 5.61 V
reg 0x05: 0x0206  Input5v   5.18 V
reg 0x06: 0x1492  Batt      11.70 V
reg 0x07: 0x044C  MainPwr   11.00 V
reg 0x08: 0x0C80  Temp      32.00 C
reg 0x09: 0x0148  VRefInt   (do not use)
reg 0x0A: 0x01
reg 0x0B: 0x01
reg 0x0C: 0x01
reg 0x0D: 0x02
reg 0x0E: 0x00
reg 0x0F: 0x01
reg 0x10: 0x02
reg 0x11: 0x1F

.

Unique Device ID (UID) IS 20393239-56564308-0012001F
reg 0x00: 0x01F1  CM4       4.97 V
reg 0x01: 0x0000  Lidar1    0.00 V
reg 0x02: 0x0000  Lidar2    0.00 V
reg 0x03: 0x0000  CanBus    0.00 V
reg 0x04: 0x0232  Accessory 5.62 V                                                                       
reg 0x05: 0x0207  Input5v   5.19 V                                                                       
reg 0x06: 0x14B0  Batt      12.00 V                                                                      
reg 0x07: 0x044C  MainPwr   11.00 V                                                                      
reg 0x08: 0x0C80  Temp      32.00 C
reg 0x09: 0x0148  VRefInt   (do not use)
reg 0x0A: 0x01
reg 0x0B: 0x01
reg 0x0C: 0x01
reg 0x0D: 0x02
reg 0x0E: 0x00
reg 0x0F: 0x01
reg 0x10: 0x02
reg 0x11: 0x1F

.

Unique Device ID (UID) IS 20393239-56564308-0012001F
reg 0x00: 0x01F1  CM4       4.97 V
reg 0x01: 0x0000  Lidar1    0.00 V
reg 0x02: 0x0000  Lidar2    0.00 V
reg 0x03: 0x0000  CanBus    0.00 V
reg 0x04: 0x0232  Accessory 5.62 V
reg 0x05: 0x0208  Input5v   5.20 V
reg 0x06: 0x14A7  Batt      11.91 V
reg 0x07: 0x044C  MainPwr   11.00 V
reg 0x08: 0x0C80  Temp      32.00 C
reg 0x09: 0x0148  VRefInt   (do not use)
reg 0x0A: 0x01
reg 0x0B: 0x01
reg 0x0C: 0x01
reg 0x0D: 0x02
reg 0x0E: 0x00
reg 0x0F: 0x01
reg 0x10: 0x02
reg 0x11: 0x1F

CTRL-A Z for help | 115200 8N1 | NOR | Minicom 2.9 | VT102 | Offline | ttyACM0                                                                                                         
artem@artem-Inspiron-15-3530:
17:34:41 ~
minicom -D /dev/ttyACM0











































Welcome to minicom 2.9

OPTIONS: I18n 
Port /dev/ttyACM0, 17:34:34

Press CTRL-A Z for help on special keys

.

Unique Device ID (UID) IS 20393239-56564308-0012001F
reg 0x00: 0x01EE  CM4       4.94 V
reg 0x01: 0x0000  Lidar1    0.00 V
reg 0x02: 0x0000  Lidar2    0.00 V
reg 0x03: 0x0000  CanBus    0.00 V
reg 0x04: 0x0234  Accessory 5.64 V
reg 0x05: 0x0209  Input5v   5.21 V
reg 0x06: 0x1498  Batt      11.76 V
reg 0x07: 0x044D  MainPwr   11.01 V
reg 0x08: 0x0C80  Temp      32.00 C
reg 0x09: 0x0148  VRefInt   (do not use)
reg 0x0A: 0x01
reg 0x0B: 0x01
reg 0x0C: 0x01
reg 0x0D: 0x02
reg 0x0E: 0x00
reg 0x0F: 0x01
reg 0x10: 0x02
reg 0x11: 0x1F

.

Unique Device ID (UID) IS 20393239-56564308-0012001F
reg 0x00: 0x01EF  CM4       4.95 V
reg 0x01: 0x0000  Lidar1    0.00 V
reg 0x02: 0x0000  Lidar2    0.00 V
reg 0x03: 0x0000  CanBus    0.00 V
reg 0x04: 0x0233  Accessory 5.63 V
reg 0x05: 0x0207  Input5v   5.19 V
reg 0x06: 0x149C  Batt      11.80 V
reg 0x07: 0x044C  MainPwr   11.00 V
reg 0x08: 0x0CE4  Temp      33.00 C
reg 0x09: 0x0148  VRefInt   (do not use)
reg 0x0A: 0x01
reg 0x0B: 0x01
reg 0x0C: 0x01
reg 0x0D: 0x02
reg 0x0E: 0x00
reg 0x0F: 0x01
reg 0x10: 0x02
reg 0x11: 0x1F

.

Unique Device ID (UID) IS 20393239-56564308-0012001F
reg 0x00: 0x01EE  CM4       4.94 V
reg 0x01: 0x0000  Lidar1    0.00 V
reg 0x02: 0x0000  Lidar2    0.00 V
reg 0x03: 0x0000  CanBus    0.00 V
reg 0x04: 0x0233  Accessory 5.63 V
reg 0x05: 0x0208  Input5v   5.20 V
reg 0x06: 0x1494  Batt      11.72 V
reg 0x07: 0x044C  MainPwr   11.00 V
reg 0x08: 0x0C80  Temp      32.00 C
reg 0x09: 0x0149  VRefInt   (do not use)
reg 0x0A: 0x01
reg 0x0B: 0x01
reg 0x0C: 0x01
reg 0x0D: 0x02
reg 0x0E: 0x00
reg 0x0F: 0x01
reg 0x10: 0x02
reg 0x11: 0x1F

.

Unique Device ID (UID) IS 20393239-56564308-0012001F
reg 0x00: 0x01EF  CM4       4.95 V
reg 0x01: 0x0000  Lidar1    0.00 V
reg 0x02: 0x0000  Lidar2    0.00 V
reg 0x03: 0x0000  CanBus    0.00 V
reg 0x04: 0x0231  Accessory 5.61 V
reg 0x05: 0x0206  Input5v   5.18 V
reg 0x06: 0x14A1  Batt      11.85 V
reg 0x07: 0x044C  MainPwr   11.00 V
reg 0x08: 0x0C80  Temp      32.00 C
reg 0x09: 0x0148  VRefInt   (do not use)
reg 0x0A: 0x01
reg 0x0B: 0x01
reg 0x0C: 0x01
reg 0x0D: 0x02
reg 0x0E: 0x00
reg 0x0F: 0x01
reg 0x10: 0x02
reg 0x11: 0x1F

.

Unique Device ID (UID) IS 20393239-56564308-0012001F
reg 0x00: 0x01F1  CM4       4.97 V
reg 0x01: 0x0000  Lidar1    0.00 V
reg 0x02: 0x0000  Lidar2    0.00 V
reg 0x03: 0x0000  CanBus    0.00 V
reg 0x04: 0x0232  Accessory 5.62 V
reg 0x05: 0x0206  Input5v   5.18 V
reg 0x06: 0x14A3  Batt      11.87 V
reg 0x07: 0x044D  MainPwr   11.01 V
reg 0x08: 0x0C80  Temp      32.00 C
reg 0x09: 0x0148  VRefInt   (do not use)
reg 0x0A: 0x01
reg 0x0B: 0x01
reg 0x0C: 0x01
reg 0x0D: 0x02
reg 0x0E: 0x00
reg 0x0F: 0x01
reg 0x10: 0x02
reg 0x11: 0x1F

.

Unique Device ID (UID) IS 20393239-56564308-0012001F
reg 0x00: 0x01EB  CM4       4.91 V
reg 0x01: 0x0000  Lidar1    0.00 V
reg 0x02: 0x0000  Lidar2    0.00 V
reg 0x03: 0x0000  CanBus    0.00 V
reg 0x04: 0x0232  Accessory 5.62 V
reg 0x05: 0x0207  Input5v   5.19 V
reg 0x06: 0x14B8  Batt      12.08 V
reg 0x07: 0x0449  MainPwr   10.97 V
reg 0x08: 0x0CE4  Temp      33.00 C
reg 0x09: 0x0148  VRefInt   (do not use)
reg 0x0A: 0x01
reg 0x0B: 0x01
reg 0x0C: 0x01
reg 0x0D: 0x02
reg 0x0E: 0x00
reg 0x0F: 0x01
reg 0x10: 0x02
reg 0x11: 0x1F

.

Unique Device ID (UID) IS 20393239-56564308-0012001F
reg 0x00: 0x01EE  CM4       4.94 V
reg 0x01: 0x0000  Lidar1    0.00 V
reg 0x02: 0x0000  Lidar2    0.00 V
reg 0x03: 0x0000  CanBus    0.00 V
reg 0x04: 0x0234  Accessory 5.64 V
reg 0x05: 0x0209  Input5v   5.21 V
reg 0x06: 0x14C8  Batt      12.24 V
reg 0x07: 0x0450  MainPwr   11.04 V
reg 0x08: 0x0C80  Temp      32.00 C
reg 0x09: 0x0148  VRefInt   (do not use)
reg 0x0A: 0x01
reg 0x0B: 0x01
reg 0x0C: 0x01
reg 0x0D: 0x02
reg 0x0E: 0x00
reg 0x0F: 0x01
reg 0x10: 0x02
reg 0x11: 0x1F

.

Unique Device ID (UID) IS 20393239-56564308-0012001F
reg 0x00: 0x01F0  CM4       4.96 V
reg 0x01: 0x0000  Lidar1    0.00 V
reg 0x02: 0x0000  Lidar2    0.00 V
reg 0x03: 0x0000  CanBus    0.00 V
reg 0x04: 0x0232  Accessory 5.62 V
reg 0x05: 0x0206  Input5v   5.18 V
reg 0x06: 0x14A5  Batt      11.89 V
reg 0x07: 0x044C  MainPwr   11.00 V
reg 0x08: 0x0CE4  Temp      33.00 C
reg 0x09: 0x0148  VRefInt   (do not use)
reg 0x0A: 0x01
reg 0x0B: 0x01
reg 0x0C: 0x01
reg 0x0D: 0x02
reg 0x0E: 0x00
reg 0x0F: 0x01
reg 0x10: 0x02
reg 0x11: 0x1F

.

Unique Device ID (UID) IS 20393239-56564308-0012001F
reg 0x00: 0x01ED  CM4       4.93 V
reg 0x01: 0x0000  Lidar1    0.00 V
reg 0x02: 0x0000  Lidar2    0.00 V
reg 0x03: 0x0000  CanBus    0.00 V
reg 0x04: 0x0232  Accessory 5.62 V
reg 0x05: 0x0207  Input5v   5.19 V
reg 0x06: 0x14B0  Batt      12.00 V
reg 0x07: 0x044C  MainPwr   11.00 V
reg 0x08: 0x0C80  Temp      32.00 C
reg 0x09: 0x0148  VRefInt   (do not use)
reg 0x0A: 0x01
reg 0x0B: 0x01
reg 0x0C: 0x01
reg 0x0D: 0x02
reg 0x0E: 0x00
reg 0x0F: 0x01
reg 0x10: 0x02
reg 0x11: 0x1F

.

Unique Device ID (UID) IS 20393239-56564308-0012001F
reg 0x00: 0x01EE  CM4       4.94 V
reg 0x01: 0x0000  Lidar1    0.00 V
reg 0x02: 0x0000  Lidar2    0.00 V
reg 0x03: 0x0000  CanBus    0.00 V
reg 0x04: 0x0231  Accessory 5.61 V
reg 0x05: 0x0206  Input5v   5.18 V
reg 0x06: 0x14AB  Batt      11.95 V
reg 0x07: 0x044D  MainPwr   11.01 V
reg 0x08: 0x0C80  Temp      32.00 C
reg 0x09: 0x0148  VRefInt   (do not use)
reg 0x0A: 0x01
reg 0x0B: 0x01
reg 0x0C: 0x01
reg 0x0D: 0x02
reg 0x0E: 0x00
reg 0x0F: 0x01
reg 0x10: 0x02
reg 0x11: 0x1F

.

Unique Device ID (UID) IS 20393239-56564308-0012001F
reg 0x00: 0x01F1  CM4       4.97 V
reg 0x01: 0x0000  Lidar1    0.00 V
reg 0x02: 0x0000  Lidar2    0.00 V
reg 0x03: 0x0000  CanBus    0.00 V
reg 0x04: 0x0232  Accessory 5.62 V
reg 0x05: 0x0207  Input5v   5.19 V
reg 0x06: 0x14A5  Batt      11.89 V
reg 0x07: 0x044C  MainPwr   11.00 V
reg 0x08: 0x0CE4  Temp      33.00 C
reg 0x09: 0x0148  VRefInt   (do not use)
reg 0x0A: 0x01
reg 0x0B: 0x01
reg 0x0C: 0x01
reg 0x0D: 0x02
reg 0x0E: 0x00
reg 0x0F: 0x01
reg 0x10: 0x02
reg 0x11: 0x1F

.

Unique Device ID (UID) IS 20393239-56564308-0012001F
reg 0x00: 0x01F0  CM4       4.96 V
reg 0x01: 0x0000  Lidar1    0.00 V
reg 0x02: 0x0000  Lidar2    0.00 V
reg 0x03: 0x0000  CanBus    0.00 V
reg 0x04: 0x0231  Accessory 5.61 V
reg 0x05: 0x0206  Input5v   5.18 V
reg 0x06: 0x14A5  Batt      11.89 V
reg 0x07: 0x044C  MainPwr   11.00 V
reg 0x08: 0x0CE4  Temp      33.00 C
reg 0x09: 0x0148  VRefInt   (do not use)
reg 0x0A: 0x01
reg 0x0B: 0x01
reg 0x0C: 0x01
reg 0x0D: 0x02
reg 0x0E: 0x00
reg 0x0F: 0x01
reg 0x10: 0x02
reg 0x11: 0x1F

.

Unique Device ID (UID) IS 20393239-56564308-0012001F
reg 0x00: 0x01EE  CM4       4.94 V
reg 0x01: 0x0000  Lidar1    0.00 V
reg 0x02: 0x0000  Lidar2    0.00 V
reg 0x03: 0x0000  CanBus    0.00 V
reg 0x04: 0x0231  Accessory 5.61 V
reg 0x05: 0x0207  Input5v   5.19 V
reg 0x06: 0x14A3  Batt      11.87 V
reg 0x07: 0x044D  MainPwr   11.01 V
reg 0x08: 0x0C80  Temp      32.00 C
reg 0x09: 0x0148  VRefInt   (do not use)
reg 0x0A: 0x01
reg 0x0B: 0x01
reg 0x0C: 0x01
reg 0x0D: 0x02
reg 0x0E: 0x00
reg 0x0F: 0x01
reg 0x10: 0x02
reg 0x11: 0x1F

.

Unique Device ID (UID) IS 20393239-56564308-0012001F
reg 0x00: 0x01F1  CM4       4.97 V
reg 0x01: 0x0000  Lidar1    0.00 V
reg 0x02: 0x0000  Lidar2    0.00 V
reg 0x03: 0x0000  CanBus    0.00 V
reg 0x04: 0x0231  Accessory 5.61 V                                                                       
reg 0x05: 0x0208  Input5v   5.20 V                                                                       
reg 0x06: 0x14A7  Batt      11.91 V                                                                      
reg 0x07: 0x044D  MainPwr   11.01 V                                                                      
reg 0x08: 0x0C80  Temp      32.00 C
reg 0x09: 0x0148  VRefInt   (do not use)
reg 0x0A: 0x01
reg 0x0B: 0x01
reg 0x0C: 0x01
reg 0x0D: 0x02
reg 0x0E: 0x00
reg 0x0F: 0x01
reg 0x10: 0x02
reg 0x11: 0x1F

.

Unique Device ID (UID) IS 20393239-56564308-0012001F
reg 0x00: 0x01F0  CM4       4.96 V
reg 0x01: 0x0000  Lidar1    0.00 V
reg 0x02: 0x0000  Lidar2    0.00 V
reg 0x03: 0x0000  CanBus    0.00 V
reg 0x04: 0x0231  Accessory 5.61 V
reg 0x05: 0x0207  Input5v   5.19 V
reg 0x06: 0x14AB  Batt      11.95 V
reg 0x07: 0x044D  MainPwr   11.01 V
reg 0x08: 0x0CE4  Temp      33.00 C
reg 0x09: 0x0148  VRefInt   (do not use)
reg 0x0A: 0x01
reg 0x0B: 0x01
reg 0x0C: 0x01
reg 0x0D: 0x02
reg 0x0E: 0x00
reg 0x0F: 0x01
reg 0x10: 0x02
reg 0x11: 0x1F

.

Unique Device ID (UID) IS 20393239-56564308-0012001F
reg 0x00: 0x01F0  CM4       4.96 V
reg 0x01: 0x0000  Lidar1    0.00 V
reg 0x02: 0x0000  Lidar2    0.00 V
reg 0x03: 0x0000  CanBus    0.00 V
reg 0x04: 0x0233  Accessory 5.63 V
reg 0x05: 0x0208  Input5v   5.20 V
reg 0x06: 0x149F  Batt      11.83 V
reg 0x07: 0x044C  MainPwr   11.00 V
reg 0x08: 0x0CE4  Temp      33.00 C
reg 0x09: 0x0148  VRefInt   (do not use)
reg 0x0A: 0x01
reg 0x0B: 0x01
reg 0x0C: 0x01
reg 0x0D: 0x02
reg 0x0E: 0x00
reg 0x0F: 0x01
reg 0x10: 0x02
reg 0x11: 0x1F

.

Unique Device ID (UID) IS 20393239-56564308-0012001F
reg 0x00: 0x01EE  CM4       4.94 V
reg 0x01: 0x0000  Lidar1    0.00 V
reg 0x02: 0x0000  Lidar2    0.00 V
reg 0x03: 0x0000  CanBus    0.00 V
reg 0x04: 0x0231  Accessory 5.61 V
reg 0x05: 0x0206  Input5v   5.18 V
reg 0x06: 0x14B3  Batt      12.03 V
reg 0x07: 0x044F  MainPwr   11.03 V
reg 0x08: 0x0C80  Temp      32.00 C
reg 0x09: 0x0148  VRefInt   (do not use)
reg 0x0A: 0x01
reg 0x0B: 0x01
reg 0x0C: 0x01
reg 0x0D: 0x02
reg 0x0E: 0x00
reg 0x0F: 0x01
reg 0x10: 0x02
reg 0x11: 0x1F

.

Unique Device ID (UID) IS 20393239-56564308-0012001F
reg 0x00: 0x01EC  CM4       4.92 V
reg 0x01: 0x0000  Lidar1    0.00 V
reg 0x02: 0x0000  Lidar2    0.00 V
reg 0x03: 0x0000  CanBus    0.00 V
reg 0x04: 0x0230  Accessory 5.60 V
reg 0x05: 0x0207  Input5v   5.19 V
reg 0x06: 0x149A  Batt      11.78 V
reg 0x07: 0x044D  MainPwr   11.01 V
reg 0x08: 0x0C80  Temp      32.00 C
reg 0x09: 0x0149  VRefInt   (do not use)
reg 0x0A: 0x01
reg 0x0B: 0x01
reg 0x0C: 0x01
reg 0x0D: 0x02
reg 0x0E: 0x00
reg 0x0F: 0x01
reg 0x10: 0x02
reg 0x11: 0x1F

.

Unique Device ID (UID) IS 20393239-56564308-0012001F
reg 0x00: 0x01F0  CM4       4.96 V
reg 0x01: 0x0000  Lidar1    0.00 V
reg 0x02: 0x0000  Lidar2    0.00 V
reg 0x03: 0x0000  CanBus    0.00 V
reg 0x04: 0x0232  Accessory 5.62 V
reg 0x05: 0x0207  Input5v   5.19 V
reg 0x06: 0x14A1  Batt      11.85 V
reg 0x07: 0x044C  MainPwr   11.00 V
reg 0x08: 0x0CE4  Temp      33.00 C
reg 0x09: 0x0148  VRefInt   (do not use)
reg 0x0A: 0x01
reg 0x0B: 0x01
reg 0x0C: 0x01
reg 0x0D: 0x02
reg 0x0E: 0x00
reg 0x0F: 0x01
reg 0x10: 0x02
reg 0x11: 0x1F

.
                                                                                                                              
Unique Device ID (UID) IS 20393239-56564308-0012001F                                                                          
reg 0x00: 0x01EC  CM4       4.92 V                                                                                            
reg 0x01: 0x0000  Lidar1    0.00 V                                                                                            
reg 0x02: 0x0000  Lidar2    0.00 V                                                                                            
reg 0x03: 0x0000  CanBus    0.00 V                                                                                            
reg 0x04: 0x0231  Accessory 5.61 V                                                                                            
reg 0x05: 0x0207  Input5v   5.19 V                                                                                            
reg 0x06: 0x149D  Batt      11.81 V                                                                                           
reg 0x07: 0x044C  MainPwr   11.00 V                                                                                           
reg 0x08: 0x0C80  Temp      32.00 C                                                                                           
reg 0x09: 0x0148  VRefInt   (do not use)                                                                                      
reg 0x0A: 0x01                                                                                                                
reg 0x0B: 0x01                                                                                                                
reg 0x0C: 0x01                                                                                                                
reg 0x0D: 0x02                                                                                                                
reg 0x0E: 0x00                                                                                                                
reg 0x0F: 0x01                                                                                                                
reg 0x10: 0x02                                                                                                                
reg 0x11: 0x1F

.

Unique Device ID (UID) IS 20393239-56564308-0012001F
reg 0x00: 0x01ED  CM4       4.93 V
reg 0x01: 0x0000  Lidar1    0.00 V
reg 0x02: 0x0000  Lidar2    0.00 V
reg 0x03: 0x0000  CanBus    0.00 V
reg 0x04: 0x0231  Accessory 5.61 V
reg 0x05: 0x0206  Input5v   5.18 V
reg 0x06: 0x14B8  Batt      12.08 V
reg 0x07: 0x044C  MainPwr   11.00 V
reg 0x08: 0x0CE4  Temp      33.00 C
reg 0x09: 0x0148  VRefInt   (do not use)
reg 0x0A: 0x01
reg 0x0B: 0x01
reg 0x0C: 0x01
reg 0x0D: 0x02
reg 0x0E: 0x00
reg 0x0F: 0x01
reg 0x10: 0x02
reg 0x11: 0x1F

.

Unique Device ID (UID) IS 20393239-56564308-0012001F
reg 0x00: 0x01F0  CM4       4.96 V
reg 0x01: 0x0000  Lidar1    0.00 V
reg 0x02: 0x0000  Lidar2    0.00 V
reg 0x03: 0x0000  CanBus    0.00 V
reg 0x04: 0x0232  Accessory 5.62 V
reg 0x05: 0x0207  Input5v   5.19 V
reg 0x06: 0x14A5  Batt      11.89 V
reg 0x07: 0x0450  MainPwr   11.04 V
reg 0x08: 0x0CE4  Temp      33.00 C
reg 0x09: 0x0148  VRefInt   (do not use)
reg 0x0A: 0x01
reg 0x0B: 0x01
reg 0x0C: 0x01
reg 0x0D: 0x02
reg 0x0E: 0x00
reg 0x0F: 0x01
reg 0x10: 0x02
reg 0x11: 0x1F

.

Unique Device ID (UID) IS 20393239-56564308-0012001F
reg 0x00: 0x01EB  CM4       4.91 V
reg 0x01: 0x0000  Lidar1    0.00 V
reg 0x02: 0x0000  Lidar2    0.00 V
reg 0x03: 0x0000  CanBus    0.00 V
reg 0x04: 0x0232  Accessory 5.62 V
reg 0x05: 0x0207  Input5v   5.19 V
reg 0x06: 0x14A1  Batt      11.85 V
reg 0x07: 0x044C  MainPwr   11.00 V
reg 0x08: 0x0C80  Temp      32.00 C
reg 0x09: 0x0148  VRefInt   (do not use)
reg 0x0A: 0x01
reg 0x0B: 0x01
reg 0x0C: 0x01
reg 0x0D: 0x02
reg 0x0E: 0x00
reg 0x0F: 0x01
reg 0x10: 0x02
reg 0x11: 0x1F

.

Unique Device ID (UID) IS 20393239-56564308-0012001F
reg 0x00: 0x01F1  CM4       4.97 V
reg 0x01: 0x0000  Lidar1    0.00 V
reg 0x02: 0x0000  Lidar2    0.00 V
reg 0x03: 0x0000  CanBus    0.00 V
reg 0x04: 0x0231  Accessory 5.61 V
reg 0x05: 0x0206  Input5v   5.18 V
reg 0x06: 0x149D  Batt      11.81 V
reg 0x07: 0x044C  MainPwr   11.00 V
reg 0x08: 0x0CE4  Temp      33.00 C
reg 0x09: 0x0148  VRefInt   (do not use)
reg 0x0A: 0x01
reg 0x0B: 0x01
reg 0x0C: 0x01
reg 0x0D: 0x02
reg 0x0E: 0x00
reg 0x0F: 0x01
reg 0x10: 0x02
reg 0x11: 0x1F

.

Unique Device ID (UID) IS 20393239-56564308-0012001F
reg 0x00: 0x01EF  CM4       4.95 V
reg 0x01: 0x0000  Lidar1    0.00 V
reg 0x02: 0x0000  Lidar2    0.00 V
reg 0x03: 0x0000  CanBus    0.00 V
reg 0x04: 0x0231  Accessory 5.61 V
reg 0x05: 0x0206  Input5v   5.18 V
reg 0x06: 0x14C2  Batt      12.18 V
reg 0x07: 0x044E  MainPwr   11.02 V
reg 0x08: 0x0CE4  Temp      33.00 C
reg 0x09: 0x0148  VRefInt   (do not use)
reg 0x0A: 0x01
reg 0x0B: 0x01
reg 0x0C: 0x01
reg 0x0D: 0x02
reg 0x0E: 0x00
reg 0x0F: 0x01
reg 0x10: 0x02
reg 0x11: 0x1F

.

Unique Device ID (UID) IS 20393239-56564308-0012001F
reg 0x00: 0x01EE  CM4       4.94 V
reg 0x01: 0x0000  Lidar1    0.00 V
reg 0x02: 0x0000  Lidar2    0.00 V
reg 0x03: 0x0000  CanBus    0.00 V
reg 0x04: 0x0231  Accessory 5.61 V
reg 0x05: 0x0206  Input5v   5.18 V
reg 0x06: 0x14B6  Batt      12.06 V
reg 0x07: 0x044C  MainPwr   11.00 V
reg 0x08: 0x0CE4  Temp      33.00 C
reg 0x09: 0x0148  VRefInt   (do not use)
reg 0x0A: 0x01
reg 0x0B: 0x01
reg 0x0C: 0x01
reg 0x0D: 0x02
reg 0x0E: 0x00
reg 0x0F: 0x01
reg 0x10: 0x02
reg 0x11: 0x1F

.

Unique Device ID (UID) IS 20393239-56564308-0012001F
reg 0x00: 0x01EE  CM4       4.94 V
reg 0x01: 0x0000  Lidar1    0.00 V
reg 0x02: 0x0000  Lidar2    0.00 V
reg 0x03: 0x0000  CanBus    0.00 V
reg 0x04: 0x0232  Accessory 5.62 V
reg 0x05: 0x0207  Input5v   5.19 V
reg 0x06: 0x14AE  Batt      11.98 V
reg 0x07: 0x044D  MainPwr   11.01 V
reg 0x08: 0x0CE4  Temp      33.00 C
reg 0x09: 0x0148  VRefInt   (do not use)
reg 0x0A: 0x01
reg 0x0B: 0x01
reg 0x0C: 0x01
reg 0x0D: 0x02
reg 0x0E: 0x00
reg 0x0F: 0x01
reg 0x10: 0x02
reg 0x11: 0x1F

.

Unique Device ID (UID) IS 20393239-56564308-0012001F
reg 0x00: 0x01EF  CM4       4.95 V
reg 0x01: 0x0000  Lidar1    0.00 V
reg 0x02: 0x0000  Lidar2    0.00 V
reg 0x03: 0x0000  CanBus    0.00 V
reg 0x04: 0x0231  Accessory 5.61 V
reg 0x05: 0x0207  Input5v   5.19 V
reg 0x06: 0x14A9  Batt      11.93 V
reg 0x07: 0x044D  MainPwr   11.01 V
reg 0x08: 0x0C80  Temp      32.00 C
reg 0x09: 0x0149  VRefInt   (do not use)
reg 0x0A: 0x01
reg 0x0B: 0x01
reg 0x0C: 0x01
reg 0x0D: 0x02
reg 0x0E: 0x00
reg 0x0F: 0x01
reg 0x10: 0x02
reg 0x11: 0x1F

.

Unique Device ID (UID) IS 20393239-56564308-0012001F
reg 0x00: 0x01EE  CM4       4.94 V
reg 0x01: 0x0000  Lidar1    0.00 V
reg 0x02: 0x0000  Lidar2    0.00 V
reg 0x03: 0x0000  CanBus    0.00 V
reg 0x04: 0x0232  Accessory 5.62 V
reg 0x05: 0x0207  Input5v   5.19 V
reg 0x06: 0x14A9  Batt      11.93 V
reg 0x07: 0x044E  MainPwr   11.02 V
reg 0x08: 0x0CE4  Temp      33.00 C
reg 0x09: 0x0148  VRefInt   (do not use)
reg 0x0A: 0x01
reg 0x0B: 0x01
reg 0x0C: 0x01
reg 0x0D: 0x02
reg 0x0E: 0x00
reg 0x0F: 0x01
reg 0x10: 0x02
reg 0x11: 0x1F

.

Unique Device ID (UID) IS 20393239-56564308-0012001F
reg 0x00: 0x01F2  CM4       4.98 V
reg 0x01: 0x0000  Lidar1    0.00 V
reg 0x02: 0x0000  Lidar2    0.00 V
reg 0x03: 0x0000  CanBus    0.00 V
reg 0x04: 0x0231  Accessory 5.61 V
reg 0x05: 0x0207  Input5v   5.19 V
reg 0x06: 0x14AE  Batt      11.98 V
reg 0x07: 0x044C  MainPwr   11.00 V
reg 0x08: 0x0C80  Temp      32.00 C
reg 0x09: 0x0148  VRefInt   (do not use)
reg 0x0A: 0x01
reg 0x0B: 0x01
reg 0x0C: 0x01
reg 0x0D: 0x02
reg 0x0E: 0x00
reg 0x0F: 0x01
reg 0x10: 0x02
reg 0x11: 0x1F

.

Unique Device ID (UID) IS 20393239-56564308-0012001F
reg 0x00: 0x01EE  CM4       4.94 V
reg 0x01: 0x0000  Lidar1    0.00 V
reg 0x02: 0x0000  Lidar2    0.00 V
reg 0x03: 0x0000  CanBus    0.00 V
reg 0x04: 0x0231  Accessory 5.61 V
reg 0x05: 0x0206  Input5v   5.18 V
reg 0x06: 0x14AD  Batt      11.97 V
reg 0x07: 0x044D  MainPwr   11.01 V
reg 0x08: 0x0CE4  Temp      33.00 C
reg 0x09: 0x0148  VRefInt   (do not use)
reg 0x0A: 0x01
reg 0x0B: 0x01
reg 0x0C: 0x01
reg 0x0D: 0x02
reg 0x0E: 0x00
reg 0x0F: 0x01
reg 0x10: 0x02
reg 0x11: 0x1F

.

Unique Device ID (UID) IS 20393239-56564308-0012001F
reg 0x00: 0x01F1  CM4       4.97 V
reg 0x01: 0x0000  Lidar1    0.00 V
reg 0x02: 0x0000  Lidar2    0.00 V
reg 0x03: 0x0000  CanBus    0.00 V
reg 0x04: 0x0200  Accessory 5.12 V
reg 0x05: 0x01D5  Input5v   4.69 V
reg 0x06: 0x0412  Batt      10.42 V
reg 0x07: 0x0446  MainPwr   10.94 V
reg 0x08: 0x0C80  Temp      32.00 C
reg 0x09: 0x0148  VRefInt   (do not use)
reg 0x0A: 0x01
reg 0x0B: 0x01
reg 0x0C: 0x01
reg 0x0D: 0x02
reg 0x0E: 0x00
reg 0x0F: 0x01
reg 0x10: 0x02
reg 0x11: 0x1F

.

Unique Device ID (UID) IS 20393239-56564308-0012001F
reg 0x00: 0x01F2  CM4       4.98 V
reg 0x01: 0x0000  Lidar1    0.00 V
reg 0x02: 0x0000  Lidar2    0.00 V
reg 0x03: 0x0000  CanBus    0.00 V
reg 0x04: 0x0198  Accessory 4.08 V
reg 0x05: 0x016E  Input5v   3.66 V
reg 0x06: 0x040F  Batt      10.39 V
reg 0x07: 0x0441  MainPwr   10.89 V
reg 0x08: 0x0CE4  Temp      33.00 C
reg 0x09: 0x0148  VRefInt   (do not use)
reg 0x0A: 0x01
reg 0x0B: 0x01
reg 0x0C: 0x01
reg 0x0D: 0x02
reg 0x0E: 0x00
reg 0x0F: 0x01
reg 0x10: 0x02
reg 0x11: 0x06

.

Unique Device ID (UID) IS 20393239-56564308-0012001F
reg 0x00: 0x01EF  CM4       4.95 V
reg 0x01: 0x0000  Lidar1    0.00 V
reg 0x02: 0x0000  Lidar2    0.00 V
reg 0x03: 0x0000  CanBus    0.00 V
reg 0x04: 0x014B  Accessory 3.31 V
reg 0x05: 0x0122  Input5v   2.90 V
reg 0x06: 0x0405  Batt      10.29 V
reg 0x07: 0x043E  MainPwr   10.86 V
reg 0x08: 0x0CE4  Temp      33.00 C
reg 0x09: 0x0148  VRefInt   (do not use)
reg 0x0A: 0x01
reg 0x0B: 0x01
reg 0x0C: 0x01
reg 0x0D: 0x02
reg 0x0E: 0x00
reg 0x0F: 0x01
reg 0x10: 0x02
reg 0x11: 0x06

.

Unique Device ID (UID) IS 20393239-56564308-0012001F
reg 0x00: 0x01F0  CM4       4.96 V
reg 0x01: 0x0000  Lidar1    0.00 V
reg 0x02: 0x0000  Lidar2    0.00 V
reg 0x03: 0x0000  CanBus    0.00 V
reg 0x04: 0x0111  Accessory 2.73 V
reg 0x05: 0x00E8  Input5v   2.32 V
reg 0x06: 0x0401  Batt      10.25 V
reg 0x07: 0x043A  MainPwr   10.82 V
reg 0x08: 0x0CE4  Temp      33.00 C
reg 0x09: 0x0148  VRefInt   (do not use)
reg 0x0A: 0x01
reg 0x0B: 0x01
reg 0x0C: 0x01
reg 0x0D: 0x02
reg 0x0E: 0x00
reg 0x0F: 0x01
reg 0x10: 0x02
reg 0x11: 0x06

.

Unique Device ID (UID) IS 20393239-56564308-0012001F
reg 0x00: 0x01ED  CM4       4.93 V
reg 0x01: 0x0000  Lidar1    0.00 V
reg 0x02: 0x0000  Lidar2    0.00 V
reg 0x03: 0x0000  CanBus    0.00 V
reg 0x04: 0x00E4  Accessory 2.28 V
reg 0x05: 0x00BC  Input5v   1.88 V
reg 0x06: 0x03FF  Batt      10.23 V
reg 0x07: 0x0435  MainPwr   10.77 V
reg 0x08: 0x0CE4  Temp      33.00 C
reg 0x09: 0x0148  VRefInt   (do not use)
reg 0x0A: 0x01
reg 0x0B: 0x01
reg 0x0C: 0x01
reg 0x0D: 0x02
reg 0x0E: 0x00
reg 0x0F: 0x01
reg 0x10: 0x02
reg 0x11: 0x06

.

Unique Device ID (UID) IS 20393239-56564308-0012001F
reg 0x00: 0x01F0  CM4       4.96 V
reg 0x01: 0x0000  Lidar1    0.00 V
reg 0x02: 0x0000  Lidar2    0.00 V
reg 0x03: 0x0000  CanBus    0.00 V
reg 0x04: 0x00C1  Accessory 1.93 V
reg 0x05: 0x009A  Input5v   1.54 V
reg 0x06: 0x03FC  Batt      10.20 V
reg 0x07: 0x0432  MainPwr   10.74 V
reg 0x08: 0x0CE4  Temp      33.00 C
reg 0x09: 0x0148  VRefInt   (do not use)
reg 0x0A: 0x01
reg 0x0B: 0x01
reg 0x0C: 0x01
reg 0x0D: 0x02
reg 0x0E: 0x00
reg 0x0F: 0x01
reg 0x10: 0x02
reg 0x11: 0x06
