Unique Device ID (UID) IS 20393239-56564308-0012001F
reg 0x00: 0x01F3  CM4       4.99 V
reg 0x01: 0x0000  Lidar1    0.00 V
reg 0x02: 0x0000  Lidar2    0.00 V
reg 0x03: 0x0000  CanBus    0.00 V
reg 0x04: 0x022F  Accessory 5.59 V
reg 0x05: 0x0201  Input5v   5.13 V
reg 0x06: 0x15E3  Batt      15.07 V
reg 0x07: 0x0455  MainPwr   11.09 V
reg 0x08: 0x0E74  Temp      37.00 C
reg 0x09: 0x014A  VRefInt   (do not use)
reg 0x0A: 0x01
reg 0x0B: 0x01
reg 0x0C: 0x01
reg 0x0D: 0x02
reg 0x0E: 0x00
reg 0x0F: 0x01
reg 0x10: 0x02
reg 0x11: 0x01

.

Unique Device ID (UID) IS 20393239-56564308-0012001F
reg 0x00: 0x01F1  CM4       4.97 V
reg 0x01: 0x0000  Lidar1    0.00 V
reg 0x02: 0x0000  Lidar2    0.00 V
reg 0x03: 0x0000  CanBus    0.00 V
reg 0x04: 0x0231  Accessory 5.61 V
reg 0x05: 0x0202  Input5v   5.14 V
reg 0x06: 0x15DD  Batt      15.01 V
reg 0x07: 0x0455  MainPwr   11.09 V
reg 0x08: 0x0ED8  Temp      38.00 C
reg 0x09: 0x014A  VRefInt   (do not use)
reg 0x0A: 0x01
reg 0x0B: 0x01
reg 0x0C: 0x01
reg 0x0D: 0x02
reg 0x0E: 0x00
reg 0x0F: 0x01
reg 0x10: 0x02
reg 0x11: 0x01

.

Unique Device ID (UID) IS 20393239-56564308-0012001F
reg 0x00: 0x01F1  CM4       4.97 V
reg 0x01: 0x0000  Lidar1    0.00 V
reg 0x02: 0x0000  Lidar2    0.00 V
reg 0x03: 0x0000  CanBus    0.00 V
reg 0x04: 0x0230  Accessory 5.60 V
reg 0x05: 0x0201  Input5v   5.13 V
reg 0x06: 0x15DC  Batt      15.00 V
reg 0x07: 0x0453  MainPwr   11.07 V
reg 0x08: 0x0E74  Temp      37.00 C
reg 0x09: 0x014A  VRefInt   (do not use)
reg 0x0A: 0x01
reg 0x0B: 0x01
reg 0x0C: 0x01
reg 0x0D: 0x02
reg 0x0E: 0x00
reg 0x0F: 0x01
reg 0x10: 0x02
reg 0x11: 0x01

.

Unique Device ID (UID) IS 20393239-56564308-0012001F
reg 0x00: 0x01F0  CM4       4.96 V
reg 0x01: 0x0000  Lidar1    0.00 V
reg 0x02: 0x0000  Lidar2    0.00 V
reg 0x03: 0x0000  CanBus    0.00 V
reg 0x04: 0x022F  Accessory 5.59 V
reg 0x05: 0x0201  Input5v   5.13 V
reg 0x06: 0x15F6  Batt      15.26 V
reg 0x07: 0x0458  MainPwr   11.12 V
reg 0x08: 0x0ED8  Temp      38.00 C
reg 0x09: 0x014A  VRefInt   (do not use)
reg 0x0A: 0x01
reg 0x0B: 0x01
reg 0x0C: 0x01
reg 0x0D: 0x02
reg 0x0E: 0x00
reg 0x0F: 0x01
reg 0x10: 0x02
reg 0x11: 0x01

.

Unique Device ID (UID) IS 20393239-56564308-0012001F
reg 0x00: 0x01F0  CM4       4.96 V
reg 0x01: 0x0000  Lidar1    0.00 V
reg 0x02: 0x0000  Lidar2    0.00 V
reg 0x03: 0x0000  CanBus    0.00 V
reg 0x04: 0x022F  Accessory 5.59 V
reg 0x05: 0x0201  Input5v   5.13 V
reg 0x06: 0x15DD  Batt      15.01 V
reg 0x07: 0x0455  MainPwr   11.09 V
reg 0x08: 0x0ED8  Temp      38.00 C
reg 0x09: 0x014A  VRefInt   (do not use)
reg 0x0A: 0x01
reg 0x0B: 0x01
reg 0x0C: 0x01
reg 0x0D: 0x02
reg 0x0E: 0x00
reg 0x0F: 0x01
reg 0x10: 0x02
reg 0x11: 0x01

